***BUSMASTER Ver 3.2.2***
***PROTOCOL CAN***
***NOTE: PLEASE DO NOT EDIT THIS DOCUMENT***
***[START LOGGING SESSION]***
***START DATE AND TIME 3:11:2025 11:39:37:345***
***HEX***
***SYSTEM MODE***
***START CHANNEL BAUD RATE***
***CHANNEL 1 - PCAN-USB Driver Id 16 - 250000 bps***
***END CHANNEL BAUD RATE***
***START DATABASE FILES***
***C:\Users\petfre2\OneDrive - Knowit AB\_Project mmgt\18. Ed\OBC\G4-0017-01 and G4-0018-01 CAN DBC V1.4.dbf***
***C:\Users\petfre2\OneDrive - Knowit AB\_Project mmgt\18. Ed\BMS\DBC\MiniModule_AUX_CAN_06212023.dbf***
***C:\Users\petfre2\OneDrive - Knowit AB\_Project mmgt\18. Ed\BMS\DBC\MiniModule_Secondary_debug_CAN_06212023.dbf***
***C:\Users\petfre2\OneDrive - Knowit AB\_Project mmgt\18. Ed\BMS\DBC\MiniModule_System_CAN_06212023.dbf***
***C:\Users\petfre2\OneDrive - Knowit AB\_Project mmgt\18. Ed\VCU\BMS_SW\AEM 30-8X00 VCU Transmit 20211204.dbf***
***END DATABASE FILES***
***<Time><Tx/Rx><Channel><CAN ID><Type><DLC><DataBytes>***
11:38:07:5636 Rx 27 0x100A001 xr 0 
11:38:07:5638 Rx 27 0x200A001 xr 0 
11:38:07:5639 Rx 27 0x300A001 xr 0 
11:38:07:5682 Rx 1 0xCF073E3 x 8 FE E3 4B 49 9A 01 00 00 
11:38:07:5688 Rx 1 0xCF073E3 x 8 EA E7 4B 49 9A 01 00 00 
11:38:07:5693 Rx 1 0xCF073E3 x 8 D4 EB 4B 49 9A 01 00 00 
11:38:07:5699 Rx 1 0xCF073E3 x 8 BE EF 4B 49 9A 01 00 00 
11:38:07:5705 Rx 1 0xCF073E3 x 8 A6 F3 4B 49 9A 01 00 00 
11:38:07:5711 Rx 1 0xCF073E3 x 8 92 F7 4B 49 9A 01 00 00 
11:38:07:5717 Rx 1 0xCF073E3 x 8 83 FB 4B 49 9A 01 00 00 
11:38:07:5722 Rx 1 0xCF073E3 x 8 6D FF 4B 49 9A 01 00 00 
11:38:07:5728 Rx 1 0xCF073E3 x 8 5C 03 4C 49 9A 01 00 00 
11:38:07:5734 Rx 1 0xCF073E3 x 8 48 07 4C 49 9A 01 00 00 
11:38:07:5740 Rx 1 0xCF073E3 x 8 32 0B 4C 49 9A 01 00 00 
11:38:07:5746 Rx 1 0xCF073E3 x 8 20 0F 4C 49 9A 01 00 00 
11:38:07:5752 Rx 1 0xCF073E3 x 8 08 13 4C 49 9A 01 00 00 
11:38:07:5757 Rx 1 0xCF073E3 x 8 F3 16 4C 49 9A 01 00 00 
11:38:07:5763 Rx 1 0xCF073E3 x 8 DB 1A 4C 49 9A 01 00 00 
11:38:07:5769 Rx 1 0xCF073E3 x 8 C6 1E 4C 49 9A 01 00 00 
11:38:07:5775 Rx 1 0xCF073E3 x 8 B1 22 4C 49 9A 01 00 00 
11:38:07:5781 Rx 1 0xCF073E3 x 8 9D 26 4C 49 9A 01 00 00 
11:38:07:5786 Rx 1 0xCF073E3 x 8 89 2A 4C 49 9A 01 00 00 
11:38:07:5792 Rx 1 0xCF073E3 x 8 75 2E 4C 49 9A 01 00 00 
11:38:07:5798 Rx 1 0xCF073E3 x 8 61 32 4C 49 9A 01 00 00 
11:38:07:5804 Rx 1 0xCF073E3 x 8 4E 36 4C 49 9A 01 00 00 
11:38:07:5810 Rx 1 0xCF073E3 x 8 38 3A 4C 49 9A 01 00 00 
11:38:07:5815 Rx 1 0xCF073E3 x 8 22 3E 4C 49 9A 01 00 00 
11:38:07:5821 Rx 1 0xCF073E3 x 8 0E 42 4C 49 9A 01 00 00 
11:38:07:5827 Rx 1 0xCF073E3 x 8 FB 45 4C 49 9A 01 00 00 
11:39:40:1807 Rx 1 0xCF073E3 x 8 B1 15 4D 49 9A 01 00 00 
11:39:41:1837 Rx 1 0xCF073E3 x 8 9C 19 4D 49 9A 01 00 00 
11:39:42:1886 Rx 1 0xCF073E3 x 8 89 1D 4D 49 9A 01 00 00 
11:39:43:1908 Rx 1 0xCF073E3 x 8 73 21 4D 49 9A 01 00 00 
11:39:44:1949 Rx 1 0xCF073E3 x 8 5F 25 4D 49 9A 01 00 00 
11:39:45:1981 Rx 1 0xCF073E3 x 8 4B 29 4D 49 9A 01 00 00 
11:39:46:1983 Rx 1 0xCF073E3 x 8 33 2D 4D 49 9A 01 00 00 
11:39:47:1978 Rx 1 0xCF073E3 x 8 1A 31 4D 49 9A 01 00 00 
11:39:48:2011 Rx 1 0xCF073E3 x 8 05 35 4D 49 9A 01 00 00 
11:39:49:2022 Rx 1 0xCF073E3 x 8 EE 38 4D 49 9A 01 00 00 
11:39:50:2060 Rx 1 0xCF073E3 x 8 DA 3C 4D 49 9A 01 00 00 
11:39:51:2081 Rx 1 0xCF073E3 x 8 C4 40 4D 49 9A 01 00 00 
11:39:52:2126 Rx 1 0xCF073E3 x 8 B1 44 4D 49 9A 01 00 00 
11:39:53:2152 Rx 1 0xCF073E3 x 8 9B 48 4D 49 9A 01 00 00 
11:39:54:2162 Rx 1 0xCF073E3 x 8 84 4C 4D 49 9A 01 00 00 
11:39:55:2184 Rx 1 0xCF073E3 x 8 6E 50 4D 49 9A 01 00 00 
11:39:56:2194 Rx 1 0xCF073E3 x 8 57 54 4D 49 9A 01 00 00 
11:39:57:2250 Rx 1 0xCF073E3 x 8 45 58 4D 49 9A 01 00 00 
11:39:58:2305 Rx 1 0xCF073E3 x 8 32 5C 4D 49 9A 01 00 00 
11:39:59:2329 Rx 1 0xCF073E3 x 8 1C 60 4D 49 9A 01 00 00 
11:40:00:2346 Rx 1 0xCF073E3 x 8 06 64 4D 49 9A 01 00 00 
11:40:01:2367 Rx 1 0xCF073E3 x 8 F0 67 4D 49 9A 01 00 00 
11:40:02:2378 Rx 1 0xCF073E3 x 8 D9 6B 4D 49 9A 01 00 00 
11:40:03:1313 Rx 1 0xCF07131 x 8 02 00 00 04 52 00 00 00 
11:40:03:1346 Rx 1 0xCF07223 x 8 00 00 82 00 52 00 00 00 
11:40:03:1372 Rx 1 0xCF07731 x 8 00 00 00 00 00 00 00 00 
11:40:03:1378 Rx 1 0xCF06731 x 8 00 00 00 00 00 00 00 00 
11:40:03:1384 Rx 1 0xCF06931 x 8 00 00 00 00 00 00 00 00 
11:40:03:1390 Rx 1 0xCF06B31 x 8 01 00 00 00 00 00 00 00 
11:40:03:1400 Rx 1 0xCF07523 x 8 00 00 00 00 00 00 00 00 
11:40:03:1406 Rx 1 0xCF06523 x 8 03 00 00 00 00 00 00 00 
11:40:03:1412 Rx 1 0xCF07623 x 8 00 00 00 00 00 00 00 00 
11:40:03:2372 Rx 1 0xCF06931 x 8 03 00 00 00 00 00 00 00 
11:40:03:2378 Rx 1 0xCF06731 x 8 00 00 00 00 00 00 00 00 
11:40:03:2383 Rx 1 0xCF06B31 x 8 01 00 00 00 00 00 00 00 
11:40:03:2401 Rx 1 0xCF06523 x 8 03 00 00 00 00 00 00 00 
11:40:03:2407 Rx 1 0xCF07623 x 8 10 00 00 00 00 00 00 00 
11:40:03:2611 Rx 1 0xCF073E3 x 8 D8 6F 4D 49 9A 01 00 00 
11:40:03:3372 Rx 1 0xCF06931 x 8 03 00 00 00 00 00 00 00 
11:40:03:3377 Rx 1 0xCF06731 x 8 00 00 00 00 00 00 00 00 
11:40:03:3383 Rx 1 0xCF06B31 x 8 01 00 00 00 00 00 00 00 
11:40:03:3401 Rx 1 0xCF06523 x 8 03 00 00 00 00 00 00 00 
11:40:03:3407 Rx 1 0xCF07623 x 8 30 00 00 00 00 00 00 00 
11:40:03:4372 Rx 1 0xCF06931 x 8 03 00 00 00 00 00 00 00 
11:40:03:4377 Rx 1 0xCF06731 x 8 00 00 00 00 00 00 00 00 
11:40:03:4383 Rx 1 0xCF06B31 x 8 01 00 00 00 00 00 00 00 
11:40:03:4402 Rx 1 0xCF06523 x 8 03 00 00 00 00 00 00 00 
11:40:03:4407 Rx 1 0xCF07623 x 8 50 00 00 00 00 00 00 00 
11:40:03:5372 Rx 1 0xCF06931 x 8 03 00 00 00 00 00 00 00 
11:40:03:5378 Rx 1 0xCF06731 x 8 00 00 00 00 00 00 00 00 
11:40:03:5383 Rx 1 0xCF06B31 x 8 01 00 00 00 00 00 00 00 
11:40:03:5402 Rx 1 0xCF06523 x 8 03 00 00 00 00 00 00 00 
11:40:03:5408 Rx 1 0xCF07623 x 8 70 00 00 00 00 00 00 00 
11:40:03:6372 Rx 1 0xCF06931 x 8 03 00 00 00 00 00 00 00 
11:40:03:6378 Rx 1 0xCF06731 x 8 00 00 00 00 00 00 00 00 
11:40:03:6383 Rx 1 0xCF06B31 x 8 01 00 00 00 00 00 00 00 
11:40:03:6403 Rx 1 0xCF06523 x 8 03 00 00 00 00 00 00 00 
11:40:03:6409 Rx 1 0xCF07623 x 8 90 00 00 00 00 00 00 00 
11:40:03:7320 Rx 1 0xCF06CE1 x 8 00 00 00 00 00 00 00 00 
11:40:03:7326 Rx 1 0xCF11000 x 8 00 00 00 00 00 00 00 00 
11:40:03:7331 Rx 1 0xCF074E1 x 8 00 00 00 00 00 00 00 00 
11:40:03:7337 Rx 1 0xCF078E1 x 8 00 00 00 00 00 00 00 00 
11:40:03:7372 Rx 1 0xCF06931 x 8 03 00 00 00 00 00 00 00 
11:40:03:7378 Rx 1 0xCF06731 x 8 00 00 00 00 00 00 00 00 
11:40:03:7384 Rx 1 0xCF06B31 x 8 01 00 00 00 00 00 00 00 
11:40:03:7404 Rx 1 0xCF06523 x 8 03 00 00 00 00 00 00 00 
11:40:03:7409 Rx 1 0xCF07623 x 8 B0 00 00 00 00 00 00 00 
11:40:03:8271 Rx 1 0xCF06CE1 x 8 00 00 00 00 00 00 00 00 
11:40:03:8277 Rx 1 0xCF078E1 x 8 00 00 00 00 00 00 00 00 
11:40:03:8372 Rx 1 0xCF06931 x 8 03 00 00 00 00 00 00 00 
11:40:03:8378 Rx 1 0xCF06731 x 8 00 00 00 00 00 00 00 00 
11:40:03:8384 Rx 1 0xCF06B31 x 8 01 00 00 00 00 00 00 00 
11:40:03:8404 Rx 1 0xCF06523 x 8 03 00 00 00 00 00 00 00 
11:40:03:8410 Rx 1 0xCF07623 x 8 D0 00 00 00 00 00 00 00 
11:40:03:9272 Rx 1 0xCF06CE1 x 8 10 00 00 00 00 00 00 00 
11:40:03:9277 Rx 1 0xCF11000 x 8 00 18 00 00 00 00 7F 00 
11:40:03:9283 Rx 1 0xCF078E1 x 8 00 00 00 00 00 00 00 00 
11:40:03:9372 Rx 1 0xCF06931 x 8 03 00 00 00 00 00 00 00 
11:40:03:9378 Rx 1 0xCF06731 x 8 00 00 00 00 00 00 00 00 
11:40:03:9384 Rx 1 0xCF06B31 x 8 01 00 00 00 00 00 00 00 
11:40:03:9405 Rx 1 0xCF06523 x 8 03 00 00 00 00 00 00 00 
11:40:03:9410 Rx 1 0xCF07623 x 8 F0 00 00 00 00 00 00 00 
11:40:04:0272 Rx 1 0xCF06CE1 x 8 20 00 00 00 00 00 00 00 
11:40:04:0277 Rx 1 0xCF078E1 x 8 00 00 00 00 00 00 00 00 
11:40:04:0372 Rx 1 0xCF06931 x 8 03 00 00 00 00 00 00 00 
11:40:04:0378 Rx 1 0xCF06731 x 8 00 00 00 00 00 00 00 00 
11:40:04:0383 Rx 1 0xCF06B31 x 8 01 00 00 00 00 00 00 00 
11:40:04:0405 Rx 1 0xCF06523 x 8 03 00 00 00 00 00 00 00 
11:40:04:0411 Rx 1 0xCF07623 x 8 10 00 00 00 00 00 00 00 
11:40:04:1271 Rx 1 0xCF06CE1 x 8 30 00 00 00 00 00 00 00 
11:40:04:1277 Rx 1 0xCF11000 x 8 00 18 00 00 3E 00 7F 00 
11:40:04:1283 Rx 1 0xCF078E1 x 8 00 00 00 00 00 00 00 00 
11:40:04:1372 Rx 1 0xCF07731 x 8 F8 72 4D 49 9A 01 01 00 
11:40:04:1378 Rx 1 0xCF06731 x 8 00 00 00 00 00 00 00 00 
11:40:04:1383 Rx 1 0xCF06931 x 8 03 00 00 00 00 00 00 00 
11:40:04:1389 Rx 1 0xCF06B31 x 8 01 00 00 00 00 00 00 00 
11:40:04:1406 Rx 1 0xCF07523 x 8 00 00 00 00 00 00 00 00 
11:40:04:1411 Rx 1 0xCF06523 x 8 03 00 00 00 00 00 00 00 
11:40:04:1417 Rx 1 0xCF07623 x 8 30 00 00 00 00 00 00 00 
11:40:04:2271 Rx 1 0xCF06CE1 x 8 40 00 00 00 00 00 00 00 
11:40:04:2277 Rx 1 0xCF078E1 x 8 00 00 00 00 00 00 00 00 
11:40:04:2372 Rx 1 0xCF06931 x 8 03 00 00 00 00 00 00 00 
11:40:04:2378 Rx 1 0xCF06731 x 8 00 00 00 00 00 00 00 00 
11:40:04:2384 Rx 1 0xCF06B31 x 8 01 00 00 00 00 00 00 00 
11:40:04:2406 Rx 1 0xCF06523 x 8 03 00 00 00 00 00 00 00 
11:40:04:2412 Rx 1 0xCF07623 x 8 50 00 00 00 00 00 00 00 
11:40:04:2620 Rx 1 0xCF073E3 x 8 C1 73 4D 49 9A 01 00 00 
11:40:04:3271 Rx 1 0xCF06CE1 x 8 50 00 00 00 00 00 00 00 
11:40:04:3277 Rx 1 0xCF11000 x 8 7F 18 00 00 3E 35 7F 7F 
11:40:04:3283 Rx 1 0xCF078E1 x 8 00 00 00 00 00 00 00 00 
11:40:04:3372 Rx 1 0xCF06931 x 8 03 00 00 00 00 00 00 00 
11:40:04:3378 Rx 1 0xCF06731 x 8 00 00 00 00 00 00 00 00 
11:40:04:3384 Rx 1 0xCF06B31 x 8 01 00 00 00 00 00 00 00 
11:40:04:3406 Rx 1 0xCF06523 x 8 03 00 00 00 00 00 00 00 
11:40:04:3412 Rx 1 0xCF07623 x 8 70 00 00 00 00 00 00 00 
11:40:04:4271 Rx 1 0xCF06CE1 x 8 60 00 00 00 00 00 00 00 
11:40:04:4277 Rx 1 0xCF078E1 x 8 00 00 00 00 00 00 00 00 
11:40:04:4372 Rx 1 0xCF06931 x 8 03 00 00 00 00 00 00 00 
11:40:04:4378 Rx 1 0xCF06731 x 8 00 00 00 00 00 00 00 00 
11:40:04:4383 Rx 1 0xCF06B31 x 8 01 00 00 00 00 00 00 00 
11:40:04:4407 Rx 1 0xCF06523 x 8 03 00 00 00 00 00 00 00 
11:40:04:4413 Rx 1 0xCF07623 x 8 90 00 00 00 00 00 00 00 
11:40:04:5271 Rx 1 0xCF06CE1 x 8 70 00 00 00 00 00 00 00 
11:40:04:5277 Rx 1 0xCF11000 x 8 7F 18 00 00 3E 35 7F 7F 
11:40:04:5283 Rx 1 0xCF078E1 x 8 00 00 00 00 00 00 00 00 
11:40:04:5372 Rx 1 0xCF06931 x 8 03 00 00 00 00 00 00 00 
11:40:04:5378 Rx 1 0xCF06731 x 8 00 00 00 00 00 00 00 00 
11:40:04:5383 Rx 1 0xCF06B31 x 8 01 00 00 00 00 00 00 00 
11:40:04:5407 Rx 1 0xCF06523 x 8 03 00 00 00 00 00 00 00 
11:40:04:5413 Rx 1 0xCF07623 x 8 B0 00 00 00 00 00 00 00 
11:40:04:6272 Rx 1 0xCF06CE1 x 8 80 00 00 00 00 00 00 00 
11:40:04:6278 Rx 1 0xCF078E1 x 8 00 00 00 00 00 00 00 00 
11:40:04:6372 Rx 1 0xCF06931 x 8 03 00 00 00 00 00 00 00 
11:40:04:6378 Rx 1 0xCF06731 x 8 00 00 00 00 00 00 00 00 
11:40:04:6384 Rx 1 0xCF06B31 x 8 01 00 00 00 00 00 00 00 
11:40:04:6408 Rx 1 0xCF06523 x 8 03 00 00 00 00 00 00 00 
11:40:04:6414 Rx 1 0xCF07623 x 8 D0 00 00 00 00 00 00 00 
11:40:04:7272 Rx 1 0xCF06CE1 x 8 90 00 00 00 00 00 00 00 
11:40:04:7277 Rx 1 0xCF11000 x 8 7F 18 00 00 1B 35 7F 7F 
11:40:04:7283 Rx 1 0xCF074E1 x 8 00 00 00 00 00 00 00 00 
11:40:04:7289 Rx 1 0xCF078E1 x 8 00 00 00 00 00 00 00 00 
11:40:04:7372 Rx 1 0xCF06931 x 8 03 00 00 00 00 00 00 00 
11:40:04:7378 Rx 1 0xCF06731 x 8 00 00 00 00 00 00 00 00 
11:40:04:7384 Rx 1 0xCF06B31 x 8 01 00 00 00 00 00 00 00 
11:40:04:7409 Rx 1 0xCF06523 x 8 03 00 00 00 00 00 00 00 
11:40:04:7415 Rx 1 0xCF07623 x 8 F0 00 00 00 00 00 00 00 
11:40:04:8272 Rx 1 0xCF06CE1 x 8 A0 00 00 00 00 00 00 00 
11:40:04:8277 Rx 1 0xCF078E1 x 8 00 00 00 00 00 00 00 00 
11:40:04:8372 Rx 1 0xCF06931 x 8 03 00 00 00 00 00 00 00 
11:40:04:8378 Rx 1 0xCF06731 x 8 00 00 00 00 00 00 00 00 
11:40:04:8384 Rx 1 0xCF06B31 x 8 01 00 00 00 00 00 00 00 
11:40:04:8409 Rx 1 0xCF06523 x 8 03 00 00 00 00 00 00 00 
11:40:04:8415 Rx 1 0xCF07623 x 8 10 00 00 00 00 00 00 00 
11:40:04:9271 Rx 1 0xCF06CE1 x 8 B0 00 00 00 00 00 00 00 
11:40:04:9277 Rx 1 0xCF11000 x 8 7F 18 00 00 1B 23 7F 7F 
11:40:04:9283 Rx 1 0xCF078E1 x 8 00 00 00 00 00 00 00 00 
11:40:04:9372 Rx 1 0xCF06931 x 8 03 00 00 00 00 00 00 00 
11:40:04:9378 Rx 1 0xCF06731 x 8 00 00 00 00 00 00 00 00 
11:40:04:9384 Rx 1 0xCF06B31 x 8 01 00 00 00 00 00 00 00 
11:40:04:9410 Rx 1 0xCF06523 x 8 03 00 00 00 00 00 00 00 
11:40:04:9416 Rx 1 0xCF07623 x 8 30 00 00 00 00 00 00 00 
11:40:05:0272 Rx 1 0xCF06CE1 x 8 C0 00 00 00 00 00 00 00 
11:40:05:0278 Rx 1 0xCF078E1 x 8 00 00 00 00 00 00 00 00 
11:40:05:0372 Rx 1 0xCF06931 x 8 03 00 00 00 00 00 00 00 
11:40:05:0378 Rx 1 0xCF06731 x 8 00 00 00 00 00 00 00 00 
11:40:05:0384 Rx 1 0xCF06B31 x 8 01 00 00 00 00 00 00 00 
11:40:05:0410 Rx 1 0xCF06523 x 8 03 00 00 00 00 00 00 00 
11:40:05:0416 Rx 1 0xCF07623 x 8 50 00 00 00 00 00 00 00 
11:40:05:1272 Rx 1 0xCF06CE1 x 8 D0 00 00 00 00 00 00 00 
11:40:05:1277 Rx 1 0xCF11000 x 8 7F 18 00 00 20 23 7F 7F 
11:40:05:1283 Rx 1 0xCF078E1 x 8 00 00 00 00 00 00 00 00 
11:40:05:1372 Rx 1 0xCF07731 x 8 E1 76 4D 49 9A 01 01 00 
11:40:05:1378 Rx 1 0xCF06731 x 8 00 00 00 00 00 00 00 00 
11:40:05:1383 Rx 1 0xCF06931 x 8 03 00 00 00 00 00 00 00 
11:40:05:1389 Rx 1 0xCF06B31 x 8 01 00 00 00 00 00 00 00 
11:40:05:1411 Rx 1 0xCF07523 x 8 00 00 00 00 00 00 00 00 
11:40:05:1417 Rx 1 0xCF06523 x 8 03 00 00 00 00 00 00 00 
11:40:05:1422 Rx 1 0xCF07623 x 8 70 00 00 00 00 00 00 00 
11:40:05:2272 Rx 1 0xCF06CE1 x 8 E0 00 00 00 00 00 00 00 
11:40:05:2277 Rx 1 0xCF078E1 x 8 00 00 00 00 00 00 00 00 
11:40:05:2372 Rx 1 0xCF06931 x 8 03 00 00 00 00 00 00 00 
11:40:05:2378 Rx 1 0xCF06731 x 8 00 00 00 00 00 00 00 00 
11:40:05:2384 Rx 1 0xCF06B31 x 8 01 00 00 00 00 00 00 00 
11:40:05:2411 Rx 1 0xCF06523 x 8 03 00 00 00 00 00 00 00 
11:40:05:2417 Rx 1 0xCF07623 x 8 90 00 00 00 00 00 00 00 
11:40:05:2620 Rx 1 0xCF073E3 x 8 A9 77 4D 49 9A 01 00 00 
11:40:05:3271 Rx 1 0xCF06CE1 x 8 F0 00 00 00 00 00 00 00 
11:40:05:3277 Rx 1 0xCF11000 x 8 7F 18 00 00 20 2C 7F 7F 
11:40:05:3283 Rx 1 0xCF078E1 x 8 00 00 00 00 00 00 00 00 
11:40:05:3372 Rx 1 0xCF06931 x 8 03 00 00 00 00 00 00 00 
11:40:05:3378 Rx 1 0xCF06731 x 8 00 00 00 00 00 00 00 00 
11:40:05:3384 Rx 1 0xCF06B31 x 8 01 00 00 00 00 00 00 00 
11:40:05:3412 Rx 1 0xCF06523 x 8 03 00 00 00 00 00 00 00 
11:40:05:3417 Rx 1 0xCF07623 x 8 B0 00 00 00 00 00 00 00 
11:40:05:4271 Rx 1 0xCF06CE1 x 8 00 00 00 00 00 00 00 00 
11:40:05:4277 Rx 1 0xCF078E1 x 8 00 00 00 00 00 00 00 00 
11:40:05:4372 Rx 1 0xCF06931 x 8 03 00 00 00 00 00 00 00 
11:40:05:4378 Rx 1 0xCF06731 x 8 00 00 00 00 00 00 00 00 
11:40:05:4384 Rx 1 0xCF06B31 x 8 01 00 00 00 00 00 00 00 
11:40:05:4412 Rx 1 0xCF06523 x 8 03 00 00 00 00 00 00 00 
11:40:05:4418 Rx 1 0xCF07623 x 8 D0 00 00 00 00 00 00 00 
11:40:05:5272 Rx 1 0xCF06CE1 x 8 10 00 00 00 00 00 00 00 
11:40:05:5278 Rx 1 0xCF11000 x 8 7F 18 00 00 20 2C 7F 7F 
11:40:05:5283 Rx 1 0xCF078E1 x 8 00 00 00 00 00 00 00 00 
11:40:05:5372 Rx 1 0xCF06931 x 8 03 00 00 00 00 00 00 00 
11:40:05:5378 Rx 1 0xCF06731 x 8 00 00 00 00 00 00 00 00 
11:40:05:5384 Rx 1 0xCF06B31 x 8 01 00 00 00 00 00 00 00 
11:40:05:5413 Rx 1 0xCF06523 x 8 03 00 00 00 00 00 00 00 
11:40:05:5418 Rx 1 0xCF07623 x 8 F0 00 00 00 00 00 00 00 
11:40:05:6272 Rx 1 0xCF06CE1 x 8 20 00 00 00 00 00 00 00 
11:40:05:6277 Rx 1 0xCF078E1 x 8 00 00 00 00 00 00 00 00 
11:40:05:6373 Rx 1 0xCF06931 x 8 03 00 00 00 00 00 00 00 
11:40:05:6378 Rx 1 0xCF06731 x 8 00 00 00 00 00 00 00 00 
11:40:05:6384 Rx 1 0xCF06B31 x 8 01 00 00 00 00 00 00 00 
11:40:05:6414 Rx 1 0xCF06523 x 8 03 00 00 00 00 00 00 00 
11:40:05:6419 Rx 1 0xCF07623 x 8 10 00 00 00 00 00 00 00 
11:40:05:7272 Rx 1 0xCF06CE1 x 8 30 00 00 00 00 00 00 00 
11:40:05:7278 Rx 1 0xCF11000 x 8 7F 18 00 00 17 2C 7F 7F 
11:40:05:7283 Rx 1 0xCF074E1 x 8 00 00 00 00 00 00 00 00 
11:40:05:7289 Rx 1 0xCF078E1 x 8 00 00 00 00 00 00 00 00 
11:40:05:7372 Rx 1 0xCF06931 x 8 03 00 00 00 00 00 00 00 
11:40:05:7378 Rx 1 0xCF06731 x 8 00 00 00 00 00 00 00 00 
11:40:05:7384 Rx 1 0xCF06B31 x 8 01 00 00 00 00 00 00 00 
11:40:05:7414 Rx 1 0xCF06523 x 8 03 00 00 00 00 00 00 00 
11:40:05:7420 Rx 1 0xCF07623 x 8 30 00 00 00 00 00 00 00 
11:40:05:8272 Rx 1 0xCF06CE1 x 8 40 00 00 00 00 00 00 00 
11:40:05:8278 Rx 1 0xCF078E1 x 8 00 00 00 00 00 00 00 00 
11:40:05:8372 Rx 1 0xCF06931 x 8 03 00 00 00 00 00 00 00 
11:40:05:8378 Rx 1 0xCF06731 x 8 00 00 00 00 00 00 00 00 
11:40:05:8384 Rx 1 0xCF06B31 x 8 01 00 00 00 00 00 00 00 
11:40:05:8415 Rx 1 0xCF06523 x 8 03 00 00 00 00 00 00 00 
11:40:05:8420 Rx 1 0xCF07623 x 8 50 00 00 00 00 00 00 00 
11:40:05:9272 Rx 1 0xCF06CE1 x 8 50 00 00 00 00 00 00 00 
11:40:05:9277 Rx 1 0xCF11000 x 8 7F 18 00 00 17 23 7F 7F 
11:40:05:9283 Rx 1 0xCF078E1 x 8 00 00 00 00 00 00 00 00 
11:40:05:9372 Rx 1 0xCF06931 x 8 03 00 00 00 00 00 00 00 
11:40:05:9378 Rx 1 0xCF06731 x 8 00 00 00 00 00 00 00 00 
11:40:05:9384 Rx 1 0xCF06B31 x 8 01 00 00 00 00 00 00 00 
11:40:05:9415 Rx 1 0xCF06523 x 8 03 00 00 00 00 00 00 00 
11:40:05:9421 Rx 1 0xCF07623 x 8 70 00 00 00 00 00 00 00 
11:40:06:0272 Rx 1 0xCF06CE1 x 8 60 00 00 00 00 00 00 00 
11:40:06:0277 Rx 1 0xCF078E1 x 8 00 00 00 00 00 00 00 00 
11:40:06:0373 Rx 1 0xCF06931 x 8 03 00 00 00 00 00 00 00 
11:40:06:0378 Rx 1 0xCF06731 x 8 00 00 00 00 00 00 00 00 
11:40:06:0384 Rx 1 0xCF06B31 x 8 01 00 00 00 00 00 00 00 
11:40:06:0416 Rx 1 0xCF06523 x 8 03 00 00 00 00 00 00 00 
11:40:06:0421 Rx 1 0xCF07623 x 8 90 00 00 00 00 00 00 00 
11:40:06:1272 Rx 1 0xCF06CE1 x 8 70 00 00 00 00 00 00 00 
11:40:06:1278 Rx 1 0xCF11000 x 8 7F 18 00 00 0F 23 7F 7F 
11:40:06:1284 Rx 1 0xCF078E1 x 8 00 00 00 00 00 00 00 00 
11:40:06:1372 Rx 1 0xCF07731 x 8 C9 7A 4D 49 9A 01 01 00 
11:40:06:1378 Rx 1 0xCF06731 x 8 00 00 00 00 00 00 00 00 
11:40:06:1383 Rx 1 0xCF06931 x 8 03 00 00 00 00 00 00 00 
11:40:06:1389 Rx 1 0xCF06B31 x 8 01 00 00 00 00 00 00 00 
11:40:06:1416 Rx 1 0xCF07523 x 8 00 00 00 00 00 00 00 00 
11:40:06:1422 Rx 1 0xCF06523 x 8 03 00 00 00 00 00 00 00 
11:40:06:1427 Rx 1 0xCF07623 x 8 B0 00 00 00 00 00 00 00 
11:40:06:2272 Rx 1 0xCF06CE1 x 8 80 00 00 00 00 00 00 00 
11:40:06:2278 Rx 1 0xCF078E1 x 8 00 00 00 00 00 00 00 00 
11:40:06:2372 Rx 1 0xCF06931 x 8 03 00 00 00 00 00 00 00 
11:40:06:2378 Rx 1 0xCF06731 x 8 00 00 00 00 00 00 00 00 
11:40:06:2384 Rx 1 0xCF06B31 x 8 01 00 00 00 00 00 00 00 
11:40:06:2416 Rx 1 0xCF06523 x 8 02 00 00 00 00 00 00 00 
11:40:06:2422 Rx 1 0xCF07623 x 8 D0 00 00 00 00 00 00 00 
11:40:06:2631 Rx 1 0xCF073E3 x 8 92 7B 4D 49 9A 01 00 00 
11:40:06:3272 Rx 1 0xCF06CE1 x 8 90 00 00 00 00 00 00 00 
11:40:06:3277 Rx 1 0xCF11000 x 8 7F 18 00 00 0F 23 7F 7F 
11:40:06:3283 Rx 1 0xCF078E1 x 8 00 00 00 00 00 00 00 00 
11:40:06:3372 Rx 1 0xCF06931 x 8 02 00 00 00 00 00 00 00 
11:40:06:3378 Rx 1 0xCF06731 x 8 00 00 00 00 00 00 00 00 
11:40:06:3384 Rx 1 0xCF06B31 x 8 01 00 00 00 00 00 00 00 
11:40:06:3417 Rx 1 0xCF06523 x 8 02 00 00 00 00 00 00 00 
11:40:06:3423 Rx 1 0xCF07623 x 8 F0 00 00 00 00 00 00 00 
11:40:06:4272 Rx 1 0xCF06CE1 x 8 A0 00 00 00 00 00 00 00 
11:40:06:4277 Rx 1 0xCF078E1 x 8 00 00 00 00 00 00 00 00 
11:40:06:4373 Rx 1 0xCF06931 x 8 02 00 00 00 00 00 00 00 
11:40:06:4378 Rx 1 0xCF06731 x 8 00 00 00 00 00 00 00 00 
11:40:06:4384 Rx 1 0xCF06B31 x 8 01 00 00 00 00 00 00 00 
11:40:06:4417 Rx 1 0xCF06523 x 8 02 00 00 00 00 00 00 00 
11:40:06:4423 Rx 1 0xCF07623 x 8 10 00 00 00 00 00 00 00 
11:40:06:5272 Rx 1 0xCF06CE1 x 8 B0 00 00 00 00 00 00 00 
11:40:06:5277 Rx 1 0xCF11000 x 8 7F 18 00 00 0F 2E 7F 7F 
11:40:06:5283 Rx 1 0xCF078E1 x 8 00 00 00 00 00 00 00 00 
11:40:06:5372 Rx 1 0xCF06931 x 8 02 00 00 00 00 00 00 00 
11:40:06:5378 Rx 1 0xCF06731 x 8 00 00 00 00 00 00 00 00 
11:40:06:5384 Rx 1 0xCF06B31 x 8 01 00 00 00 00 00 00 00 
11:40:06:5418 Rx 1 0xCF06523 x 8 02 00 00 00 00 00 00 00 
11:40:06:5424 Rx 1 0xCF07623 x 8 30 00 00 00 00 00 00 00 
11:40:06:6272 Rx 1 0xCF06CE1 x 8 C0 00 00 00 00 00 00 00 
11:40:06:6278 Rx 1 0xCF078E1 x 8 00 00 00 00 00 00 00 00 
11:40:06:6373 Rx 1 0xCF06931 x 8 02 00 00 00 00 00 00 00 
11:40:06:6379 Rx 1 0xCF06731 x 8 00 00 00 00 00 00 00 00 
11:40:06:6384 Rx 1 0xCF06B31 x 8 01 00 00 00 00 00 00 00 
11:40:06:6419 Rx 1 0xCF06523 x 8 02 00 00 00 00 00 00 00 
11:40:06:6425 Rx 1 0xCF07623 x 8 50 00 00 00 00 00 00 00 
11:40:06:7272 Rx 1 0xCF06CE1 x 8 D0 00 00 00 00 00 00 00 
11:40:06:7278 Rx 1 0xCF11000 x 8 7F 18 00 00 22 2E 7F 7F 
11:40:06:7283 Rx 1 0xCF074E1 x 8 00 00 00 00 00 00 00 00 
11:40:06:7289 Rx 1 0xCF078E1 x 8 00 00 00 00 00 00 00 00 
11:40:06:7373 Rx 1 0xCF06931 x 8 02 00 00 00 00 00 00 00 
11:40:06:7378 Rx 1 0xCF06731 x 8 00 00 00 00 00 00 00 00 
11:40:06:7384 Rx 1 0xCF06B31 x 8 01 00 00 00 00 00 00 00 
11:40:06:7419 Rx 1 0xCF06523 x 8 02 00 00 00 00 00 00 00 
11:40:06:7425 Rx 1 0xCF07623 x 8 70 00 00 00 00 00 00 00 
11:40:06:8272 Rx 1 0xCF06CE1 x 8 E0 00 00 00 00 00 00 00 
11:40:06:8278 Rx 1 0xCF078E1 x 8 00 00 00 00 00 00 00 00 
11:40:06:8373 Rx 1 0xCF06931 x 8 02 00 00 00 00 00 00 00 
11:40:06:8378 Rx 1 0xCF06731 x 8 00 00 00 00 00 00 00 00 
11:40:06:8384 Rx 1 0xCF06B31 x 8 01 00 00 00 00 00 00 00 
11:40:06:8420 Rx 1 0xCF06523 x 8 02 00 00 00 00 00 00 00 
11:40:06:8426 Rx 1 0xCF07623 x 8 90 00 00 00 00 00 00 00 
11:40:06:9272 Rx 1 0xCF06CE1 x 8 F0 00 00 00 00 00 00 00 
11:40:06:9278 Rx 1 0xCF11000 x 8 7F 18 00 00 22 27 7F 7F 
11:40:06:9284 Rx 1 0xCF078E1 x 8 00 00 00 00 00 00 00 00 
11:40:06:9372 Rx 1 0xCF06931 x 8 02 00 00 00 00 00 00 00 
11:40:06:9378 Rx 1 0xCF06731 x 8 00 00 00 00 00 00 00 00 
11:40:06:9384 Rx 1 0xCF06B31 x 8 01 00 00 00 00 00 00 00 
11:40:06:9420 Rx 1 0xCF06523 x 8 02 00 00 00 00 00 00 00 
11:40:06:9426 Rx 1 0xCF07623 x 8 B0 00 00 00 00 00 00 00 
11:40:07:0272 Rx 1 0xCF06CE1 x 8 00 00 00 00 00 00 00 00 
11:40:07:0278 Rx 1 0xCF078E1 x 8 00 00 00 00 00 00 00 00 
11:40:07:0373 Rx 1 0xCF06931 x 8 02 00 00 00 00 00 00 00 
11:40:07:0378 Rx 1 0xCF06731 x 8 00 00 00 00 00 00 00 00 
11:40:07:0384 Rx 1 0xCF06B31 x 8 01 00 00 00 00 00 00 00 
11:40:07:0421 Rx 1 0xCF06523 x 8 02 00 00 00 00 00 00 00 
11:40:07:0426 Rx 1 0xCF07623 x 8 D0 00 00 00 00 00 00 00 
11:40:07:1272 Rx 1 0xCF06CE1 x 8 10 00 00 00 00 00 00 00 
11:40:07:1278 Rx 1 0xCF11000 x 8 7F 18 00 00 22 27 7F 7F 
11:40:07:1283 Rx 1 0xCF078E1 x 8 00 00 00 00 00 00 00 00 
11:40:07:1372 Rx 1 0xCF07731 x 8 B2 7E 4D 49 9A 01 01 00 
11:40:07:1378 Rx 1 0xCF06731 x 8 00 00 00 00 00 00 00 00 
11:40:07:1384 Rx 1 0xCF06931 x 8 02 00 00 00 00 00 00 00 
11:40:07:1390 Rx 1 0xCF06B31 x 8 01 00 00 00 00 00 00 00 
11:40:07:1421 Rx 1 0xCF07523 x 8 00 00 00 00 00 00 00 00 
11:40:07:1427 Rx 1 0xCF06523 x 8 02 00 00 00 00 00 00 00 
11:40:07:1433 Rx 1 0xCF07623 x 8 F0 00 00 00 00 00 00 00 
11:40:07:2272 Rx 1 0xCF06CE1 x 8 20 00 00 00 00 00 00 00 
11:40:07:2278 Rx 1 0xCF078E1 x 8 00 00 00 00 00 00 00 00 
11:40:07:2373 Rx 1 0xCF06931 x 8 02 00 00 00 00 00 00 00 
11:40:07:2379 Rx 1 0xCF06731 x 8 00 00 00 00 00 00 00 00 
11:40:07:2384 Rx 1 0xCF06B31 x 8 01 00 00 00 00 00 00 00 
11:40:07:2422 Rx 1 0xCF06523 x 8 02 00 00 00 00 00 00 00 
11:40:07:2428 Rx 1 0xCF07623 x 8 10 00 00 00 00 00 00 00 
11:40:07:2651 Rx 1 0xCF073E3 x 8 7C 7F 4D 49 9A 01 00 00 
11:40:07:3272 Rx 1 0xCF06CE1 x 8 30 00 00 00 00 00 00 00 
11:40:07:3278 Rx 1 0xCF11000 x 8 7F 18 00 00 1F 27 7F 7F 
11:40:07:3284 Rx 1 0xCF078E1 x 8 00 00 00 00 00 00 00 00 
11:40:07:3373 Rx 1 0xCF06931 x 8 02 00 00 00 00 00 00 00 
11:40:07:3378 Rx 1 0xCF06731 x 8 00 00 00 00 00 00 00 00 
11:40:07:3384 Rx 1 0xCF06B31 x 8 01 00 00 00 00 00 00 00 
11:40:07:3422 Rx 1 0xCF06523 x 8 02 00 00 00 00 00 00 00 
11:40:07:3428 Rx 1 0xCF07623 x 8 30 00 00 00 00 00 00 00 
11:40:07:4272 Rx 1 0xCF06CE1 x 8 40 00 00 00 00 00 00 00 
11:40:07:4278 Rx 1 0xCF078E1 x 8 00 00 00 00 00 00 00 00 
11:40:07:4373 Rx 1 0xCF06931 x 8 02 00 00 00 00 00 00 00 
11:40:07:4378 Rx 1 0xCF06731 x 8 00 00 00 00 00 00 00 00 
11:40:07:4384 Rx 1 0xCF06B31 x 8 01 00 00 00 00 00 00 00 
11:40:07:4423 Rx 1 0xCF06523 x 8 02 00 00 00 00 00 00 00 
11:40:07:4428 Rx 1 0xCF07623 x 8 50 00 00 00 00 00 00 00 
11:40:07:5272 Rx 1 0xCF06CE1 x 8 50 00 00 00 00 00 00 00 
11:40:07:5278 Rx 1 0xCF11000 x 8 7F 18 00 00 1F 23 7F 7F 
11:40:07:5283 Rx 1 0xCF078E1 x 8 00 00 00 00 00 00 00 00 
11:40:07:5373 Rx 1 0xCF06931 x 8 02 00 00 00 00 00 00 00 
11:40:07:5379 Rx 1 0xCF06731 x 8 00 00 00 00 00 00 00 00 
11:40:07:5384 Rx 1 0xCF06B31 x 8 01 00 00 00 00 00 00 00 
11:40:07:5423 Rx 1 0xCF06523 x 8 02 00 00 00 00 00 00 00 
11:40:07:5429 Rx 1 0xCF07623 x 8 70 00 00 00 00 00 00 00 
11:40:07:6272 Rx 1 0xCF06CE1 x 8 60 00 00 00 00 00 00 00 
11:40:07:6278 Rx 1 0xCF078E1 x 8 00 00 00 00 00 00 00 00 
11:40:07:6373 Rx 1 0xCF06931 x 8 02 00 00 00 00 00 00 00 
11:40:07:6379 Rx 1 0xCF06731 x 8 00 00 00 00 00 00 00 00 
11:40:07:6384 Rx 1 0xCF06B31 x 8 01 00 00 00 00 00 00 00 
11:40:07:6424 Rx 1 0xCF06523 x 8 02 00 00 00 00 00 00 00 
11:40:07:6430 Rx 1 0xCF07623 x 8 90 00 00 00 00 00 00 00 
11:40:07:7272 Rx 1 0xCF06CE1 x 8 70 00 00 00 00 00 00 00 
11:40:07:7278 Rx 1 0xCF11000 x 8 7F 18 00 00 1B 23 7F 7F 
11:40:07:7284 Rx 1 0xCF074E1 x 8 00 00 00 00 00 00 00 00 
11:40:07:7289 Rx 1 0xCF078E1 x 8 00 00 00 00 00 00 00 00 
11:40:07:7373 Rx 1 0xCF06931 x 8 02 00 00 00 00 00 00 00 
11:40:07:7379 Rx 1 0xCF06731 x 8 00 00 00 00 00 00 00 00 
11:40:07:7385 Rx 1 0xCF06B31 x 8 01 00 00 00 00 00 00 00 
11:40:07:7425 Rx 1 0xCF06523 x 8 02 00 00 00 00 00 00 00 
11:40:07:7430 Rx 1 0xCF07623 x 8 B0 00 00 00 00 00 00 00 
11:40:07:8272 Rx 1 0xCF06CE1 x 8 80 00 00 00 00 00 00 00 
11:40:07:8278 Rx 1 0xCF078E1 x 8 00 00 00 00 00 00 00 00 
11:40:07:8373 Rx 1 0xCF06931 x 8 02 00 00 00 00 00 00 00 
11:40:07:8379 Rx 1 0xCF06731 x 8 00 00 00 00 00 00 00 00 
11:40:07:8385 Rx 1 0xCF06B31 x 8 01 00 00 00 00 00 00 00 
11:40:07:8425 Rx 1 0xCF06523 x 8 02 00 00 00 00 00 00 00 
11:40:07:8431 Rx 1 0xCF07623 x 8 D0 00 00 00 00 00 00 00 
11:40:07:9272 Rx 1 0xCF06CE1 x 8 90 00 00 00 00 00 00 00 
11:40:07:9278 Rx 1 0xCF11000 x 8 7F 18 00 00 1B 2E 7F 7F 
11:40:07:9284 Rx 1 0xCF078E1 x 8 00 00 00 00 00 00 00 00 
11:40:07:9373 Rx 1 0xCF06931 x 8 02 00 00 00 00 00 00 00 
11:40:07:9379 Rx 1 0xCF06731 x 8 00 00 00 00 00 00 00 00 
11:40:07:9384 Rx 1 0xCF06B31 x 8 01 00 00 00 00 00 00 00 
11:40:07:9426 Rx 1 0xCF06523 x 8 02 00 00 00 00 00 00 00 
11:40:07:9431 Rx 1 0xCF07623 x 8 F0 00 00 00 00 00 00 00 
11:40:08:0272 Rx 1 0xCF06CE1 x 8 A0 00 00 00 00 00 00 00 
11:40:08:0278 Rx 1 0xCF078E1 x 8 00 00 00 00 00 00 00 00 
11:40:08:0373 Rx 1 0xCF06931 x 8 02 00 00 00 00 00 00 00 
11:40:08:0379 Rx 1 0xCF06731 x 8 00 00 00 00 00 00 00 00 
11:40:08:0384 Rx 1 0xCF06B31 x 8 01 00 00 00 00 00 00 00 
11:40:08:0426 Rx 1 0xCF06523 x 8 02 00 00 00 00 00 00 00 
11:40:08:0432 Rx 1 0xCF07623 x 8 10 00 00 00 00 00 00 00 
11:40:08:1272 Rx 1 0xCF06CE1 x 8 B0 00 00 00 00 00 00 00 
11:40:08:1278 Rx 1 0xCF11000 x 8 7F 18 00 00 1B 2E 7F 7F 
11:40:08:1284 Rx 1 0xCF078E1 x 8 00 00 00 00 00 00 00 00 
11:40:08:1373 Rx 1 0xCF07731 x 8 9C 82 4D 49 9A 01 01 00 
11:40:08:1379 Rx 1 0xCF06731 x 8 00 00 00 00 00 00 00 00 
11:40:08:1384 Rx 1 0xCF06931 x 8 02 00 00 00 00 00 00 00 
11:40:08:1390 Rx 1 0xCF06B31 x 8 01 00 00 00 00 00 00 00 
11:40:08:1426 Rx 1 0xCF07523 x 8 90 02 07 8F 00 00 00 00 
11:40:08:1432 Rx 1 0xCF06523 x 8 02 00 00 00 00 00 00 00 
11:40:08:1438 Rx 1 0xCF07623 x 8 30 00 00 00 00 00 00 00 
11:40:08:2272 Rx 1 0xCF06CE1 x 8 C0 00 00 00 00 00 00 00 
11:40:08:2278 Rx 1 0xCF078E1 x 8 00 00 00 00 00 00 00 00 
11:40:08:2373 Rx 1 0xCF06931 x 8 02 00 00 00 00 00 00 00 
11:40:08:2379 Rx 1 0xCF06731 x 8 00 00 00 00 00 00 00 00 
11:40:08:2385 Rx 1 0xCF06B31 x 8 01 00 00 00 00 00 00 00 
11:40:08:2427 Rx 1 0xCF06523 x 8 02 00 00 00 00 00 00 00 
11:40:08:2433 Rx 1 0xCF07623 x 8 50 00 00 00 00 00 00 00 
11:40:08:2682 Rx 1 0xCF073E3 x 8 67 83 4D 49 9A 01 00 00 
11:40:08:3272 Rx 1 0xCF06CE1 x 8 D0 00 00 00 00 00 00 00 
11:40:08:3278 Rx 1 0xCF11000 x 8 7F 18 00 00 17 2E 7F 7F 
11:40:08:3284 Rx 1 0xCF078E1 x 8 00 00 00 00 00 00 00 00 
11:40:08:3373 Rx 1 0xCF06931 x 8 02 00 00 00 00 00 00 00 
11:40:08:3379 Rx 1 0xCF06731 x 8 00 00 00 00 00 00 00 00 
11:40:08:3384 Rx 1 0xCF06B31 x 8 01 00 00 00 00 00 00 00 
11:40:08:3427 Rx 1 0xCF06523 x 8 02 00 00 00 00 00 00 00 
11:40:08:3433 Rx 1 0xCF07623 x 8 70 00 00 00 00 00 00 00 
11:40:08:4272 Rx 1 0xCF06CE1 x 8 E0 00 00 00 00 00 00 00 
11:40:08:4278 Rx 1 0xCF078E1 x 8 00 00 00 00 00 00 00 00 
11:40:08:4373 Rx 1 0xCF06931 x 8 02 00 00 00 00 00 00 00 
11:40:08:4379 Rx 1 0xCF06731 x 8 00 00 00 00 00 00 00 00 
11:40:08:4384 Rx 1 0xCF06B31 x 8 01 00 00 00 00 00 00 00 
11:40:08:4428 Rx 1 0xCF06523 x 8 02 00 00 00 00 00 00 00 
11:40:08:4434 Rx 1 0xCF07623 x 8 90 00 00 00 00 00 00 00 
11:40:08:5272 Rx 1 0xCF06CE1 x 8 F0 00 00 00 00 00 00 00 
11:40:08:5278 Rx 1 0xCF11000 x 8 7F 18 00 00 17 27 7F 7F 
11:40:08:5284 Rx 1 0xCF078E1 x 8 00 00 00 00 00 00 00 00 
11:40:08:5373 Rx 1 0xCF06931 x 8 02 00 00 00 00 00 00 00 
11:40:08:5378 Rx 1 0xCF06731 x 8 00 00 00 00 00 00 00 00 
11:40:08:5384 Rx 1 0xCF06B31 x 8 01 00 00 00 00 00 00 00 
11:40:08:5428 Rx 1 0xCF06523 x 8 02 00 00 00 00 00 00 00 
11:40:08:5434 Rx 1 0xCF07623 x 8 B0 00 00 00 00 00 00 00 
11:40:08:6273 Rx 1 0xCF06CE1 x 8 00 00 00 00 00 00 00 00 
11:40:08:6278 Rx 1 0xCF078E1 x 8 00 00 00 00 00 00 00 00 
11:40:08:6373 Rx 1 0xCF06931 x 8 02 00 00 00 00 00 00 00 
11:40:08:6379 Rx 1 0xCF06731 x 8 00 00 00 00 00 00 00 00 
11:40:08:6385 Rx 1 0xCF06B31 x 8 01 00 00 00 00 00 00 00 
11:40:08:6429 Rx 1 0xCF06523 x 8 02 00 00 00 00 00 00 00 
11:40:08:6435 Rx 1 0xCF07623 x 8 D0 00 00 00 00 00 00 00 
11:40:08:7273 Rx 1 0xCF06CE1 x 8 10 00 00 00 00 00 00 00 
11:40:08:7278 Rx 1 0xCF11000 x 8 7F 18 00 00 17 27 7F 7F 
11:40:08:7284 Rx 1 0xCF074E1 x 8 00 00 00 00 00 00 00 00 
11:40:08:7290 Rx 1 0xCF078E1 x 8 00 00 00 00 00 00 00 00 
11:40:08:7373 Rx 1 0xCF06931 x 8 02 00 00 00 00 00 00 00 
11:40:08:7379 Rx 1 0xCF06731 x 8 00 00 00 00 00 00 00 00 
11:40:08:7385 Rx 1 0xCF06B31 x 8 01 00 00 00 00 00 00 00 
11:40:08:7430 Rx 1 0xCF06523 x 8 02 00 00 00 00 00 00 00 
11:40:08:7436 Rx 1 0xCF07623 x 8 F0 00 00 00 00 00 00 00 
11:40:08:8272 Rx 1 0xCF06CE1 x 8 20 00 00 00 00 00 00 00 
11:40:08:8278 Rx 1 0xCF078E1 x 8 00 00 00 00 00 00 00 00 
11:40:08:8373 Rx 1 0xCF06931 x 8 02 00 00 00 00 00 00 00 
11:40:08:8379 Rx 1 0xCF06731 x 8 00 00 00 00 00 00 00 00 
11:40:08:8385 Rx 1 0xCF06B31 x 8 01 00 00 00 00 00 00 00 
11:40:08:8430 Rx 1 0xCF06523 x 8 02 00 00 00 00 00 00 00 
11:40:08:8436 Rx 1 0xCF07623 x 8 10 00 00 00 00 00 00 00 
11:40:08:9272 Rx 1 0xCF06CE1 x 8 30 00 00 00 00 00 00 00 
11:40:08:9278 Rx 1 0xCF11000 x 8 7F 18 00 00 17 2E 7F 7F 
11:40:08:9284 Rx 1 0xCF078E1 x 8 00 00 00 00 00 00 00 00 
11:40:08:9373 Rx 1 0xCF06931 x 8 02 00 00 00 00 00 00 00 
11:40:08:9379 Rx 1 0xCF06731 x 8 00 00 00 00 00 00 00 00 
11:40:08:9385 Rx 1 0xCF06B31 x 8 01 00 00 00 00 00 00 00 
11:40:08:9431 Rx 1 0xCF06523 x 8 02 00 00 00 00 00 00 00 
11:40:08:9437 Rx 1 0xCF07623 x 8 30 00 00 00 00 00 00 00 
11:40:09:0273 Rx 1 0xCF06CE1 x 8 40 00 00 00 00 00 00 00 
11:40:09:0278 Rx 1 0xCF078E1 x 8 00 00 00 00 00 00 00 00 
11:40:09:0373 Rx 1 0xCF06931 x 8 02 00 00 00 00 00 00 00 
11:40:09:0379 Rx 1 0xCF06731 x 8 00 00 00 00 00 00 00 00 
11:40:09:0385 Rx 1 0xCF06B31 x 8 01 00 00 00 00 00 00 00 
11:40:09:0431 Rx 1 0xCF06523 x 8 02 00 00 00 00 00 00 00 
11:40:09:0437 Rx 1 0xCF07623 x 8 50 00 00 00 00 00 00 00 
11:40:09:1272 Rx 1 0xCF06CE1 x 8 50 00 00 00 00 00 00 00 
11:40:09:1278 Rx 1 0xCF11000 x 8 7F 18 00 00 17 2E 7F 7F 
11:40:09:1284 Rx 1 0xCF078E1 x 8 00 00 00 00 00 00 00 00 
11:40:09:1373 Rx 1 0xCF07731 x 8 87 86 4D 49 9A 01 01 00 
11:40:09:1378 Rx 1 0xCF06731 x 8 00 00 00 00 00 00 00 00 
11:40:09:1384 Rx 1 0xCF06931 x 8 02 00 00 00 00 00 00 00 
11:40:09:1390 Rx 1 0xCF06B31 x 8 01 00 00 00 00 00 00 00 
11:40:09:1432 Rx 1 0xCF07523 x 8 90 02 07 8F 00 00 00 00 
11:40:09:1437 Rx 1 0xCF06523 x 8 02 00 00 00 00 00 00 00 
11:40:09:1443 Rx 1 0xCF07623 x 8 70 00 00 00 00 00 00 00 
11:40:09:2272 Rx 1 0xCF06CE1 x 8 60 00 00 00 00 00 00 00 
11:40:09:2278 Rx 1 0xCF078E1 x 8 00 00 00 00 00 00 00 00 
11:40:09:2373 Rx 1 0xCF06931 x 8 02 00 00 00 00 00 00 00 
11:40:09:2379 Rx 1 0xCF06731 x 8 00 00 00 00 00 00 00 00 
11:40:09:2385 Rx 1 0xCF06B31 x 8 01 00 00 00 00 00 00 00 
11:40:09:2432 Rx 1 0xCF06523 x 8 02 00 00 00 00 00 00 00 
11:40:09:2438 Rx 1 0xCF07623 x 8 90 00 00 00 00 00 00 00 
11:40:09:2722 Rx 1 0xCF073E3 x 8 53 87 4D 49 9A 01 00 00 
11:40:09:3272 Rx 1 0xCF06CE1 x 8 70 00 00 00 00 00 00 00 
11:40:09:3278 Rx 1 0xCF11000 x 8 7F 18 00 00 20 2E 7F 7F 
11:40:09:3284 Rx 1 0xCF078E1 x 8 00 00 00 00 00 00 00 00 
11:40:09:3373 Rx 1 0xCF06931 x 8 02 00 00 00 00 00 00 00 
11:40:09:3379 Rx 1 0xCF06731 x 8 00 00 00 00 00 00 00 00 
11:40:09:3385 Rx 1 0xCF06B31 x 8 01 00 00 00 00 00 00 00 
11:40:09:3433 Rx 1 0xCF06523 x 8 02 00 00 00 00 00 00 00 
11:40:09:3438 Rx 1 0xCF07623 x 8 B0 00 00 00 00 00 00 00 
11:40:09:4272 Rx 1 0xCF06CE1 x 8 80 00 00 00 00 00 00 00 
11:40:09:4278 Rx 1 0xCF078E1 x 8 00 00 00 00 00 00 00 00 
11:40:09:4373 Rx 1 0xCF06931 x 8 02 00 00 00 00 00 00 00 
11:40:09:4379 Rx 1 0xCF06731 x 8 00 00 00 00 00 00 00 00 
11:40:09:4385 Rx 1 0xCF06B31 x 8 01 00 00 00 00 00 00 00 
11:40:09:4433 Rx 1 0xCF06523 x 8 02 00 00 00 00 00 00 00 
11:40:09:4439 Rx 1 0xCF07623 x 8 D0 00 00 00 00 00 00 00 
11:40:09:5273 Rx 1 0xCF06CE1 x 8 90 00 00 00 00 00 00 00 
11:40:09:5278 Rx 1 0xCF11000 x 8 7F 18 00 00 20 23 7F 7F 
11:40:09:5284 Rx 1 0xCF078E1 x 8 00 00 00 00 00 00 00 00 
11:40:09:5373 Rx 1 0xCF06931 x 8 02 00 00 00 00 00 00 00 
11:40:09:5379 Rx 1 0xCF06731 x 8 00 00 00 00 00 00 00 00 
11:40:09:5385 Rx 1 0xCF06B31 x 8 01 00 00 00 00 00 00 00 
11:40:09:5434 Rx 1 0xCF06523 x 8 02 00 00 00 00 00 00 00 
11:40:09:5439 Rx 1 0xCF07623 x 8 F0 00 00 00 00 00 00 00 
11:40:09:6273 Rx 1 0xCF06CE1 x 8 A0 00 00 00 00 00 00 00 
11:40:09:6279 Rx 1 0xCF078E1 x 8 00 00 00 00 00 00 00 00 
11:40:09:6373 Rx 1 0xCF06931 x 8 02 00 00 00 00 00 00 00 
11:40:09:6379 Rx 1 0xCF06731 x 8 00 00 00 00 00 00 00 00 
11:40:09:6385 Rx 1 0xCF06B31 x 8 01 00 00 00 00 00 00 00 
11:40:09:6435 Rx 1 0xCF06523 x 8 02 00 00 00 00 00 00 00 
11:40:09:6440 Rx 1 0xCF07623 x 8 10 00 00 00 00 00 00 00 
11:40:09:7273 Rx 1 0xCF06CE1 x 8 B0 00 00 00 00 00 00 00 
11:40:09:7278 Rx 1 0xCF11000 x 8 7F 18 00 00 1B 23 7F 7F 
11:40:09:7284 Rx 1 0xCF074E1 x 8 00 00 00 00 00 00 00 00 
11:40:09:7290 Rx 1 0xCF078E1 x 8 00 00 00 00 00 00 00 00 
11:40:09:7373 Rx 1 0xCF06931 x 8 02 00 00 00 00 00 00 00 
11:40:09:7379 Rx 1 0xCF06731 x 8 00 00 00 00 00 00 00 00 
11:40:09:7385 Rx 1 0xCF06B31 x 8 01 00 00 00 00 00 00 00 
11:40:09:7435 Rx 1 0xCF06523 x 8 02 00 00 00 00 00 00 00 
11:40:09:7441 Rx 1 0xCF07623 x 8 30 00 00 00 00 00 00 00 
11:40:09:8273 Rx 1 0xCF06CE1 x 8 C0 00 00 00 00 00 00 00 
11:40:09:8278 Rx 1 0xCF078E1 x 8 00 00 00 00 00 00 00 00 
11:40:09:8373 Rx 1 0xCF06931 x 8 02 00 00 00 00 00 00 00 
11:40:09:8379 Rx 1 0xCF06731 x 8 00 00 00 00 00 00 00 00 
11:40:09:8385 Rx 1 0xCF06B31 x 8 01 00 00 00 00 00 00 00 
11:40:09:8436 Rx 1 0xCF06523 x 8 02 00 00 00 00 00 00 00 
11:40:09:8441 Rx 1 0xCF07623 x 8 50 00 00 00 00 00 00 00 
11:40:09:9273 Rx 1 0xCF06CE1 x 8 D0 00 00 00 00 00 00 00 
11:40:09:9278 Rx 1 0xCF11000 x 8 7F 18 00 00 1B 1F 7F 7F 
11:40:09:9284 Rx 1 0xCF078E1 x 8 00 00 00 00 00 00 00 00 
11:40:09:9373 Rx 1 0xCF06931 x 8 02 00 00 00 00 00 00 00 
11:40:09:9379 Rx 1 0xCF06731 x 8 00 00 00 00 00 00 00 00 
11:40:09:9385 Rx 1 0xCF06B31 x 8 01 00 00 00 00 00 00 00 
11:40:09:9436 Rx 1 0xCF06523 x 8 02 00 00 00 00 00 00 00 
11:40:09:9442 Rx 1 0xCF07623 x 8 70 00 00 00 00 00 00 00 
11:40:10:0272 Rx 1 0xCF06CE1 x 8 E0 00 00 00 00 00 00 00 
11:40:10:0278 Rx 1 0xCF078E1 x 8 00 00 00 00 00 00 00 00 
11:40:10:0373 Rx 1 0xCF06931 x 8 02 00 00 00 00 00 00 00 
11:40:10:0379 Rx 1 0xCF06731 x 8 00 00 00 00 00 00 00 00 
11:40:10:0385 Rx 1 0xCF06B31 x 8 01 00 00 00 00 00 00 00 
11:40:10:0436 Rx 1 0xCF06523 x 8 02 00 00 00 00 00 00 00 
11:40:10:0442 Rx 1 0xCF07623 x 8 90 00 00 00 00 00 00 00 
11:40:10:1273 Rx 1 0xCF06CE1 x 8 F0 00 00 00 00 00 00 00 
11:40:10:1278 Rx 1 0xCF11000 x 8 7F 18 00 00 1B 1F 7F 7F 
11:40:10:1284 Rx 1 0xCF078E1 x 8 00 00 00 00 00 00 00 00 
11:40:10:1373 Rx 1 0xCF07731 x 8 73 8A 4D 49 9A 01 01 00 
11:40:10:1379 Rx 1 0xCF06731 x 8 00 00 00 00 00 00 00 00 
11:40:10:1384 Rx 1 0xCF06931 x 8 02 00 00 00 00 00 00 00 
11:40:10:1390 Rx 1 0xCF06B31 x 8 01 00 00 00 00 00 00 00 
11:40:10:1437 Rx 1 0xCF07523 x 8 90 02 07 8F 00 00 00 00 
11:40:10:1443 Rx 1 0xCF06523 x 8 02 00 00 00 00 00 00 00 
11:40:10:1448 Rx 1 0xCF07623 x 8 B0 00 00 00 00 00 00 00 
11:40:10:2273 Rx 1 0xCF06CE1 x 8 00 00 00 00 00 00 00 00 
11:40:10:2279 Rx 1 0xCF078E1 x 8 00 00 00 00 00 00 00 00 
11:40:10:2373 Rx 1 0xCF06931 x 8 02 00 00 00 00 00 00 00 
11:40:10:2379 Rx 1 0xCF06731 x 8 00 00 00 00 00 00 00 00 
11:40:10:2385 Rx 1 0xCF06B31 x 8 01 00 00 00 00 00 00 00 
11:40:10:2437 Rx 1 0xCF06523 x 8 02 00 00 00 00 00 00 00 
11:40:10:2443 Rx 1 0xCF07623 x 8 D0 00 00 00 00 00 00 00 
11:40:10:2744 Rx 1 0xCF073E3 x 8 3D 8B 4D 49 9A 01 00 00 
11:40:10:3273 Rx 1 0xCF06CE1 x 8 10 00 00 00 00 00 00 00 
11:40:10:3278 Rx 1 0xCF11000 x 8 7F 18 00 00 1F 1F 7F 7F 
11:40:10:3284 Rx 1 0xCF078E1 x 8 00 00 00 00 00 00 00 00 
11:40:10:3373 Rx 1 0xCF06931 x 8 02 00 00 00 00 00 00 00 
11:40:10:3379 Rx 1 0xCF06731 x 8 00 00 00 00 00 00 00 00 
11:40:10:3385 Rx 1 0xCF06B31 x 8 01 00 00 00 00 00 00 00 
11:40:10:3438 Rx 1 0xCF06523 x 8 02 00 00 00 00 00 00 00 
11:40:10:3444 Rx 1 0xCF07623 x 8 F0 00 00 00 00 00 00 00 
11:40:10:4273 Rx 1 0xCF06CE1 x 8 20 00 00 00 00 00 00 00 
11:40:10:4278 Rx 1 0xCF078E1 x 8 00 00 00 00 00 00 00 00 
11:40:10:4373 Rx 1 0xCF06931 x 8 02 00 00 00 00 00 00 00 
11:40:10:4379 Rx 1 0xCF06731 x 8 00 00 00 00 00 00 00 00 
11:40:10:4385 Rx 1 0xCF06B31 x 8 01 00 00 00 00 00 00 00 
11:40:10:4438 Rx 1 0xCF06523 x 8 02 00 00 00 00 00 00 00 
11:40:10:4444 Rx 1 0xCF07623 x 8 10 00 00 00 00 00 00 00 
11:40:10:5272 Rx 1 0xCF06CE1 x 8 30 00 00 00 00 00 00 00 
11:40:10:5278 Rx 1 0xCF11000 x 8 7F 18 00 00 1F 32 7F 7F 
11:40:10:5284 Rx 1 0xCF078E1 x 8 00 00 00 00 00 00 00 00 
11:40:10:5373 Rx 1 0xCF06931 x 8 02 00 00 00 00 00 00 00 
11:40:10:5379 Rx 1 0xCF06731 x 8 00 00 00 00 00 00 00 00 
11:40:10:5385 Rx 1 0xCF06B31 x 8 01 00 00 00 00 00 00 00 
11:40:10:5439 Rx 1 0xCF06523 x 8 02 00 00 00 00 00 00 00 
11:40:10:5445 Rx 1 0xCF07623 x 8 30 00 00 00 00 00 00 00 
11:40:10:6273 Rx 1 0xCF06CE1 x 8 40 00 00 00 00 00 00 00 
11:40:10:6279 Rx 1 0xCF078E1 x 8 00 00 00 00 00 00 00 00 
11:40:10:6374 Rx 1 0xCF06931 x 8 02 00 00 00 00 00 00 00 
11:40:10:6380 Rx 1 0xCF06731 x 8 00 00 00 00 00 00 00 00 
11:40:10:6385 Rx 1 0xCF06B31 x 8 01 00 00 00 00 00 00 00 
11:40:10:6440 Rx 1 0xCF06523 x 8 02 00 00 00 00 00 00 00 
11:40:10:6446 Rx 1 0xCF07623 x 8 50 00 00 00 00 00 00 00 
11:40:10:7273 Rx 1 0xCF06CE1 x 8 50 00 00 00 00 00 00 00 
11:40:10:7279 Rx 1 0xCF11000 x 8 7F 18 00 00 24 32 7F 7F 
11:40:10:7284 Rx 1 0xCF074E1 x 8 00 00 00 00 00 00 00 00 
11:40:10:7290 Rx 1 0xCF078E1 x 8 00 00 00 00 00 00 00 00 
11:40:10:7374 Rx 1 0xCF06931 x 8 02 00 00 00 00 00 00 00 
11:40:10:7379 Rx 1 0xCF06731 x 8 00 00 00 00 00 00 00 00 
11:40:10:7385 Rx 1 0xCF06B31 x 8 01 00 00 00 00 00 00 00 
11:40:10:7440 Rx 1 0xCF06523 x 8 02 00 00 00 00 00 00 00 
11:40:10:7446 Rx 1 0xCF07623 x 8 70 00 00 00 00 00 00 00 
11:40:10:8273 Rx 1 0xCF06CE1 x 8 60 00 00 00 00 00 00 00 
11:40:10:8279 Rx 1 0xCF078E1 x 8 00 00 00 00 00 00 00 00 
11:40:10:8373 Rx 1 0xCF06931 x 8 02 00 00 00 00 00 00 00 
11:40:10:8379 Rx 1 0xCF06731 x 8 00 00 00 00 00 00 00 00 
11:40:10:8385 Rx 1 0xCF06B31 x 8 01 00 00 00 00 00 00 00 
11:40:10:8441 Rx 1 0xCF06523 x 8 02 00 00 00 00 00 00 00 
11:40:10:8446 Rx 1 0xCF07623 x 8 90 00 00 00 00 00 00 00 
11:40:10:9273 Rx 1 0xCF06CE1 x 8 70 00 00 00 00 00 00 00 
11:40:10:9279 Rx 1 0xCF11000 x 8 7F 18 00 00 24 27 7F 7F 
11:40:10:9284 Rx 1 0xCF078E1 x 8 00 00 00 00 00 00 00 00 
11:40:10:9373 Rx 1 0xCF06931 x 8 02 00 00 00 00 00 00 00 
11:40:10:9379 Rx 1 0xCF06731 x 8 00 00 00 00 00 00 00 00 
11:40:10:9385 Rx 1 0xCF06B31 x 8 01 00 00 00 00 00 00 00 
11:40:10:9441 Rx 1 0xCF06523 x 8 02 00 00 00 00 00 00 00 
11:40:10:9447 Rx 1 0xCF07623 x 8 B0 00 00 00 00 00 00 00 
11:40:11:0273 Rx 1 0xCF06CE1 x 8 80 00 00 00 00 00 00 00 
11:40:11:0279 Rx 1 0xCF078E1 x 8 00 00 00 00 00 00 00 00 
11:40:11:0374 Rx 1 0xCF06931 x 8 02 00 00 00 00 00 00 00 
11:40:11:0379 Rx 1 0xCF06731 x 8 00 00 00 00 00 00 00 00 
11:40:11:0385 Rx 1 0xCF06B31 x 8 01 00 00 00 00 00 00 00 
11:40:11:0442 Rx 1 0xCF06523 x 8 02 00 00 00 00 00 00 00 
11:40:11:0447 Rx 1 0xCF07623 x 8 D0 00 00 00 00 00 00 00 
11:40:11:1273 Rx 1 0xCF06CE1 x 8 90 00 00 00 00 00 00 00 
11:40:11:1278 Rx 1 0xCF11000 x 8 7F 18 00 00 24 27 7F 7F 
11:40:11:1284 Rx 1 0xCF078E1 x 8 00 00 00 00 00 00 00 00 
11:40:11:1373 Rx 1 0xCF07731 x 8 5D 8E 4D 49 9A 01 01 00 
11:40:11:1379 Rx 1 0xCF06731 x 8 00 00 00 00 00 00 00 00 
11:40:11:1385 Rx 1 0xCF06931 x 8 02 00 00 00 00 00 00 00 
11:40:11:1390 Rx 1 0xCF06B31 x 8 01 00 00 00 00 00 00 00 
11:40:11:1442 Rx 1 0xCF07523 x 8 90 02 07 8F 00 00 00 00 
11:40:11:1448 Rx 1 0xCF06523 x 8 02 00 00 00 00 00 00 00 
11:40:11:1454 Rx 1 0xCF07623 x 8 F0 00 00 00 00 00 00 00 
11:40:11:2273 Rx 1 0xCF06CE1 x 8 A0 00 00 00 00 00 00 00 
11:40:11:2279 Rx 1 0xCF078E1 x 8 00 00 00 00 00 00 00 00 
11:40:11:2373 Rx 1 0xCF06931 x 8 02 00 00 00 00 00 00 00 
11:40:11:2379 Rx 1 0xCF06731 x 8 00 00 00 00 00 00 00 00 
11:40:11:2385 Rx 1 0xCF06B31 x 8 01 00 00 00 00 00 00 00 
11:40:11:2443 Rx 1 0xCF06523 x 8 02 00 00 00 00 00 00 00 
11:40:11:2448 Rx 1 0xCF07623 x 8 10 00 00 00 00 00 00 00 
11:40:11:2773 Rx 1 0xCF073E3 x 8 28 8F 4D 49 9A 01 00 00 
11:40:11:3273 Rx 1 0xCF06CE1 x 8 B0 00 00 00 00 00 00 00 
11:40:11:3279 Rx 1 0xCF11000 x 8 7F 18 00 00 23 27 7F 7F 
11:40:11:3284 Rx 1 0xCF078E1 x 8 00 00 00 00 00 00 00 00 
11:40:11:3373 Rx 1 0xCF06931 x 8 02 00 00 00 00 00 00 00 
11:40:11:3379 Rx 1 0xCF06731 x 8 00 00 00 00 00 00 00 00 
11:40:11:3385 Rx 1 0xCF06B31 x 8 01 00 00 00 00 00 00 00 
11:40:11:3443 Rx 1 0xCF06523 x 8 02 00 00 00 00 00 00 00 
11:40:11:3449 Rx 1 0xCF07623 x 8 30 00 00 00 00 00 00 00 
11:40:11:4273 Rx 1 0xCF06CE1 x 8 C0 00 00 00 00 00 00 00 
11:40:11:4279 Rx 1 0xCF078E1 x 8 00 00 00 00 00 00 00 00 
11:40:11:4373 Rx 1 0xCF06931 x 8 02 00 00 00 00 00 00 00 
11:40:11:4379 Rx 1 0xCF06731 x 8 00 00 00 00 00 00 00 00 
11:40:11:4385 Rx 1 0xCF06B31 x 8 01 00 00 00 00 00 00 00 
11:40:11:4444 Rx 1 0xCF06523 x 8 02 00 00 00 00 00 00 00 
11:40:11:4449 Rx 1 0xCF07623 x 8 50 00 00 00 00 00 00 00 
11:40:11:5273 Rx 1 0xCF06CE1 x 8 D0 00 00 00 00 00 00 00 
11:40:11:5278 Rx 1 0xCF11000 x 8 7F 18 00 00 23 26 7F 7F 
11:40:11:5284 Rx 1 0xCF078E1 x 8 00 00 00 00 00 00 00 00 
11:40:11:5374 Rx 1 0xCF06931 x 8 02 00 00 00 00 00 00 00 
11:40:11:5379 Rx 1 0xCF06731 x 8 00 00 00 00 00 00 00 00 
11:40:11:5385 Rx 1 0xCF06B31 x 8 01 00 00 00 00 00 00 00 
11:40:11:5444 Rx 1 0xCF06523 x 8 02 00 00 00 00 00 00 00 
11:40:11:5450 Rx 1 0xCF07623 x 8 70 00 00 00 00 00 00 00 
11:40:11:6273 Rx 1 0xCF06CE1 x 8 E0 00 00 00 00 00 00 00 
11:40:11:6279 Rx 1 0xCF078E1 x 8 00 00 00 00 00 00 00 00 
11:40:11:6373 Rx 1 0xCF06931 x 8 02 00 00 00 00 00 00 00 
11:40:11:6379 Rx 1 0xCF06731 x 8 00 00 00 00 00 00 00 00 
11:40:11:6385 Rx 1 0xCF06B31 x 8 01 00 00 00 00 00 00 00 
11:40:11:6445 Rx 1 0xCF06523 x 8 02 00 00 00 00 00 00 00 
11:40:11:6451 Rx 1 0xCF07623 x 8 90 00 00 00 00 00 00 00 
11:40:11:7273 Rx 1 0xCF06CE1 x 8 F0 00 00 00 00 00 00 00 
11:40:11:7279 Rx 1 0xCF11000 x 8 7F 18 00 00 13 26 7F 7F 
11:40:11:7284 Rx 1 0xCF074E1 x 8 00 00 00 00 00 00 00 00 
11:40:11:7290 Rx 1 0xCF078E1 x 8 00 00 00 00 00 00 00 00 
11:40:11:7374 Rx 1 0xCF06931 x 8 02 00 00 00 00 00 00 00 
11:40:11:7380 Rx 1 0xCF06731 x 8 00 00 00 00 00 00 00 00 
11:40:11:7385 Rx 1 0xCF06B31 x 8 01 00 00 00 00 00 00 00 
11:40:11:7446 Rx 1 0xCF06523 x 8 02 00 00 00 00 00 00 00 
11:40:11:7451 Rx 1 0xCF07623 x 8 B0 00 00 00 00 00 00 00 
11:40:11:8273 Rx 1 0xCF06CE1 x 8 00 00 00 00 00 00 00 00 
11:40:11:8279 Rx 1 0xCF078E1 x 8 00 00 00 00 00 00 00 00 
11:40:11:8374 Rx 1 0xCF06931 x 8 02 00 00 00 00 00 00 00 
11:40:11:8380 Rx 1 0xCF06731 x 8 00 00 00 00 00 00 00 00 
11:40:11:8385 Rx 1 0xCF06B31 x 8 01 00 00 00 00 00 00 00 
11:40:11:8446 Rx 1 0xCF06523 x 8 02 00 00 00 00 00 00 00 
11:40:11:8452 Rx 1 0xCF07623 x 8 D0 00 00 00 00 00 00 00 
11:40:11:9273 Rx 1 0xCF06CE1 x 8 10 00 00 00 00 00 00 00 
11:40:11:9279 Rx 1 0xCF11000 x 8 7F 18 00 00 13 26 7F 7F 
11:40:11:9285 Rx 1 0xCF078E1 x 8 00 00 00 00 00 00 00 00 
11:40:11:9374 Rx 1 0xCF06931 x 8 02 00 00 00 00 00 00 00 
11:40:11:9379 Rx 1 0xCF06731 x 8 00 00 00 00 00 00 00 00 
11:40:11:9385 Rx 1 0xCF06B31 x 8 01 00 00 00 00 00 00 00 
11:40:11:9446 Rx 1 0xCF06523 x 8 02 00 00 00 00 00 00 00 
11:40:11:9452 Rx 1 0xCF07623 x 8 F0 00 00 00 00 00 00 00 
11:40:12:0273 Rx 1 0xCF06CE1 x 8 20 00 00 00 00 00 00 00 
11:40:12:0279 Rx 1 0xCF078E1 x 8 00 00 00 00 00 00 00 00 
11:40:12:0374 Rx 1 0xCF06931 x 8 02 00 00 00 00 00 00 00 
11:40:12:0379 Rx 1 0xCF06731 x 8 00 00 00 00 00 00 00 00 
11:40:12:0385 Rx 1 0xCF06B31 x 8 01 00 00 00 00 00 00 00 
11:40:12:0447 Rx 1 0xCF06523 x 8 02 00 00 00 00 00 00 00 
11:40:12:0453 Rx 1 0xCF07623 x 8 10 00 00 00 00 00 00 00 
11:40:12:1273 Rx 1 0xCF06CE1 x 8 30 00 00 00 00 00 00 00 
11:40:12:1279 Rx 1 0xCF11000 x 8 7F 18 00 00 13 1B 7F 7F 
11:40:12:1284 Rx 1 0xCF078E1 x 8 00 00 00 00 00 00 00 00 
11:40:12:1373 Rx 1 0xCF07731 x 8 48 92 4D 49 9A 01 01 00 
11:40:12:1379 Rx 1 0xCF06731 x 8 00 00 00 00 00 00 00 00 
11:40:12:1385 Rx 1 0xCF06931 x 8 02 00 00 00 00 00 00 00 
11:40:12:1391 Rx 1 0xCF06B31 x 8 01 00 00 00 00 00 00 00 
11:40:12:1447 Rx 1 0xCF07523 x 8 90 02 07 8F 00 00 00 00 
11:40:12:1453 Rx 1 0xCF06523 x 8 02 00 00 00 00 00 00 00 
11:40:12:1459 Rx 1 0xCF07623 x 8 30 00 00 00 00 00 00 00 
11:40:12:2273 Rx 1 0xCF06CE1 x 8 40 00 00 00 00 00 00 00 
11:40:12:2279 Rx 1 0xCF078E1 x 8 00 00 00 00 00 00 00 00 
11:40:12:2374 Rx 1 0xCF06931 x 8 02 00 00 00 00 00 00 00 
11:40:12:2380 Rx 1 0xCF06731 x 8 00 00 00 00 00 00 00 00 
11:40:12:2385 Rx 1 0xCF06B31 x 8 01 00 00 00 00 00 00 00 
11:40:12:2448 Rx 1 0xCF06523 x 8 02 00 00 00 00 00 00 00 
11:40:12:2454 Rx 1 0xCF07623 x 8 50 00 00 00 00 00 00 00 
11:40:12:2793 Rx 1 0xCF073E3 x 8 12 93 4D 49 9A 01 00 00 
11:40:12:3273 Rx 1 0xCF06CE1 x 8 50 00 00 00 00 00 00 00 
11:40:12:3279 Rx 1 0xCF11000 x 8 7F 18 00 00 23 1B 7F 7F 
11:40:12:3284 Rx 1 0xCF078E1 x 8 00 00 00 00 00 00 00 00 
11:40:12:3374 Rx 1 0xCF06931 x 8 02 00 00 00 00 00 00 00 
11:40:12:3379 Rx 1 0xCF06731 x 8 00 00 00 00 00 00 00 00 
11:40:12:3385 Rx 1 0xCF06B31 x 8 01 00 00 00 00 00 00 00 
11:40:12:3448 Rx 1 0xCF06523 x 8 02 00 00 00 00 00 00 00 
11:40:12:3454 Rx 1 0xCF07623 x 8 70 00 00 00 00 00 00 00 
11:40:12:4273 Rx 1 0xCF06CE1 x 8 60 00 00 00 00 00 00 00 
11:40:12:4279 Rx 1 0xCF078E1 x 8 00 00 00 00 00 00 00 00 
11:40:12:4374 Rx 1 0xCF06931 x 8 02 00 00 00 00 00 00 00 
11:40:12:4379 Rx 1 0xCF06731 x 8 00 00 00 00 00 00 00 00 
11:40:12:4385 Rx 1 0xCF06B31 x 8 01 00 00 00 00 00 00 00 
11:40:12:4449 Rx 1 0xCF06523 x 8 02 00 00 00 00 00 00 00 
11:40:12:4454 Rx 1 0xCF07623 x 8 90 00 00 00 00 00 00 00 
11:40:12:5273 Rx 1 0xCF06CE1 x 8 70 00 00 00 00 00 00 00 
11:40:12:5279 Rx 1 0xCF11000 x 8 7F 18 00 00 23 27 7F 7F 
11:40:12:5284 Rx 1 0xCF078E1 x 8 00 00 00 00 00 00 00 00 
11:40:12:5373 Rx 1 0xCF06931 x 8 02 00 00 00 00 00 00 00 
11:40:12:5379 Rx 1 0xCF06731 x 8 00 00 00 00 00 00 00 00 
11:40:12:5385 Rx 1 0xCF06B31 x 8 01 00 00 00 00 00 00 00 
11:40:12:5449 Rx 1 0xCF06523 x 8 02 00 00 00 00 00 00 00 
11:40:12:5455 Rx 1 0xCF07623 x 8 B0 00 00 00 00 00 00 00 
11:40:12:6273 Rx 1 0xCF06CE1 x 8 80 00 00 00 00 00 00 00 
11:40:12:6279 Rx 1 0xCF078E1 x 8 00 00 00 00 00 00 00 00 
11:40:12:6374 Rx 1 0xCF06931 x 8 02 00 00 00 00 00 00 00 
11:40:12:6380 Rx 1 0xCF06731 x 8 00 00 00 00 00 00 00 00 
11:40:12:6385 Rx 1 0xCF06B31 x 8 01 00 00 00 00 00 00 00 
11:40:12:6450 Rx 1 0xCF06523 x 8 02 00 00 00 00 00 00 00 
11:40:12:6456 Rx 1 0xCF07623 x 8 D0 00 00 00 00 00 00 00 
11:40:12:7273 Rx 1 0xCF06CE1 x 8 90 00 00 00 00 00 00 00 
11:40:12:7279 Rx 1 0xCF11000 x 8 7F 18 00 00 17 27 7F 7F 
11:40:12:7285 Rx 1 0xCF074E1 x 8 00 00 00 00 00 00 00 00 
11:40:12:7290 Rx 1 0xCF078E1 x 8 00 00 00 00 00 00 00 00 
11:40:12:7374 Rx 1 0xCF06931 x 8 02 00 00 00 00 00 00 00 
11:40:12:7379 Rx 1 0xCF06731 x 8 00 00 00 00 00 00 00 00 
11:40:12:7385 Rx 1 0xCF06B31 x 8 01 00 00 00 00 00 00 00 
11:40:12:7451 Rx 1 0xCF06523 x 8 02 00 00 00 00 00 00 00 
11:40:12:7456 Rx 1 0xCF07623 x 8 F0 00 00 00 00 00 00 00 
11:40:12:8273 Rx 1 0xCF06CE1 x 8 A0 00 00 00 00 00 00 00 
11:40:12:8279 Rx 1 0xCF078E1 x 8 00 00 00 00 00 00 00 00 
11:40:12:8374 Rx 1 0xCF06931 x 8 02 00 00 00 00 00 00 00 
11:40:12:8380 Rx 1 0xCF06731 x 8 00 00 00 00 00 00 00 00 
11:40:12:8386 Rx 1 0xCF06B31 x 8 01 00 00 00 00 00 00 00 
11:40:12:8451 Rx 1 0xCF06523 x 8 02 00 00 00 00 00 00 00 
11:40:12:8457 Rx 1 0xCF07623 x 8 10 00 00 00 00 00 00 00 
11:40:12:9273 Rx 1 0xCF06CE1 x 8 B0 00 00 00 00 00 00 00 
11:40:12:9279 Rx 1 0xCF11000 x 8 7F 18 00 00 17 27 7F 7F 
11:40:12:9285 Rx 1 0xCF078E1 x 8 00 00 00 00 00 00 00 00 
11:40:12:9374 Rx 1 0xCF06931 x 8 02 00 00 00 00 00 00 00 
11:40:12:9380 Rx 1 0xCF06731 x 8 00 00 00 00 00 00 00 00 
11:40:12:9385 Rx 1 0xCF06B31 x 8 01 00 00 00 00 00 00 00 
11:40:12:9451 Rx 1 0xCF06523 x 8 02 00 00 00 00 00 00 00 
11:40:12:9457 Rx 1 0xCF07623 x 8 30 00 00 00 00 00 00 00 
11:40:13:0273 Rx 1 0xCF06CE1 x 8 C0 00 00 00 00 00 00 00 
11:40:13:0279 Rx 1 0xCF078E1 x 8 00 00 00 00 00 00 00 00 
11:40:13:0374 Rx 1 0xCF06931 x 8 02 00 00 00 00 00 00 00 
11:40:13:0380 Rx 1 0xCF06731 x 8 00 00 00 00 00 00 00 00 
11:40:13:0385 Rx 1 0xCF06B31 x 8 01 00 00 00 00 00 00 00 
11:40:13:0452 Rx 1 0xCF06523 x 8 02 00 00 00 00 00 00 00 
11:40:13:0458 Rx 1 0xCF07623 x 8 50 00 00 00 00 00 00 00 
11:40:13:1273 Rx 1 0xCF06CE1 x 8 D0 00 00 00 00 00 00 00 
11:40:13:1279 Rx 1 0xCF11000 x 8 7F 18 00 00 17 2C 7F 7F 
11:40:13:1285 Rx 1 0xCF078E1 x 8 00 00 00 00 00 00 00 00 
11:40:13:1373 Rx 1 0xCF07731 x 8 32 96 4D 49 9A 01 01 00 
11:40:13:1379 Rx 1 0xCF06731 x 8 00 00 00 00 00 00 00 00 
11:40:13:1385 Rx 1 0xCF06931 x 8 02 00 00 00 00 00 00 00 
11:40:13:1391 Rx 1 0xCF06B31 x 8 01 00 00 00 00 00 00 00 
11:40:13:1452 Rx 1 0xCF07523 x 8 90 02 07 8F 00 00 00 00 
11:40:13:1458 Rx 1 0xCF06523 x 8 02 00 00 00 00 00 00 00 
11:40:13:1464 Rx 1 0xCF07623 x 8 70 00 00 00 00 00 00 00 
11:40:13:2273 Rx 1 0xCF06CE1 x 8 E0 00 00 00 00 00 00 00 
11:40:13:2279 Rx 1 0xCF078E1 x 8 00 00 00 00 00 00 00 00 
11:40:13:2374 Rx 1 0xCF06931 x 8 02 00 00 00 00 00 00 00 
11:40:13:2379 Rx 1 0xCF06731 x 8 00 00 00 00 00 00 00 00 
11:40:13:2385 Rx 1 0xCF06B31 x 8 01 00 00 00 00 00 00 00 
11:40:13:2453 Rx 1 0xCF06523 x 8 02 00 00 00 00 00 00 00 
11:40:13:2459 Rx 1 0xCF07623 x 8 90 00 00 00 00 00 00 00 
11:40:13:2827 Rx 1 0xCF073E3 x 8 FD 96 4D 49 9A 01 00 00 
11:40:13:3273 Rx 1 0xCF06CE1 x 8 F0 00 00 00 00 00 00 00 
11:40:13:3279 Rx 1 0xCF11000 x 8 7F 18 00 00 27 2C 7F 7F 
11:40:13:3285 Rx 1 0xCF078E1 x 8 00 00 00 00 00 00 00 00 
11:40:13:3374 Rx 1 0xCF06931 x 8 02 00 00 00 00 00 00 00 
11:40:13:3380 Rx 1 0xCF06731 x 8 00 00 00 00 00 00 00 00 
11:40:13:3386 Rx 1 0xCF06B31 x 8 01 00 00 00 00 00 00 00 
11:40:13:3453 Rx 1 0xCF06523 x 8 02 00 00 00 00 00 00 00 
11:40:13:3459 Rx 1 0xCF07623 x 8 B0 00 00 00 00 00 00 00 
11:40:13:4273 Rx 1 0xCF06CE1 x 8 00 00 00 00 00 00 00 00 
11:40:13:4279 Rx 1 0xCF078E1 x 8 00 00 00 00 00 00 00 00 
11:40:13:4374 Rx 1 0xCF06931 x 8 02 00 00 00 00 00 00 00 
11:40:13:4380 Rx 1 0xCF06731 x 8 00 00 00 00 00 00 00 00 
11:40:13:4385 Rx 1 0xCF06B31 x 8 01 00 00 00 00 00 00 00 
11:40:13:4454 Rx 1 0xCF06523 x 8 02 00 00 00 00 00 00 00 
11:40:13:4459 Rx 1 0xCF07623 x 8 D0 00 00 00 00 00 00 00 
11:40:13:5273 Rx 1 0xCF06CE1 x 8 10 00 00 00 00 00 00 00 
11:40:13:5279 Rx 1 0xCF11000 x 8 7F 18 00 00 27 23 7F 7F 
11:40:13:5285 Rx 1 0xCF078E1 x 8 00 00 00 00 00 00 00 00 
11:40:13:5374 Rx 1 0xCF06931 x 8 02 00 00 00 00 00 00 00 
11:40:13:5380 Rx 1 0xCF06731 x 8 00 00 00 00 00 00 00 00 
11:40:13:5385 Rx 1 0xCF06B31 x 8 01 00 00 00 00 00 00 00 
11:40:13:5454 Rx 1 0xCF06523 x 8 02 00 00 00 00 00 00 00 
11:40:13:5460 Rx 1 0xCF07623 x 8 F0 00 00 00 00 00 00 00 
11:40:13:6273 Rx 1 0xCF06CE1 x 8 20 00 00 00 00 00 00 00 
11:40:13:6279 Rx 1 0xCF078E1 x 8 00 00 00 00 00 00 00 00 
11:40:13:6374 Rx 1 0xCF06931 x 8 02 00 00 00 00 00 00 00 
11:40:13:6380 Rx 1 0xCF06731 x 8 00 00 00 00 00 00 00 00 
11:40:13:6386 Rx 1 0xCF06B31 x 8 01 00 00 00 00 00 00 00 
11:40:13:6455 Rx 1 0xCF06523 x 8 02 00 00 00 00 00 00 00 
11:40:13:6461 Rx 1 0xCF07623 x 8 10 00 00 00 00 00 00 00 
11:40:13:7274 Rx 1 0xCF06CE1 x 8 30 00 00 00 00 00 00 00 
11:40:13:7279 Rx 1 0xCF11000 x 8 7F 18 00 00 27 23 7F 7F 
11:40:13:7285 Rx 1 0xCF074E1 x 8 00 00 00 00 00 00 00 00 
11:40:13:7291 Rx 1 0xCF078E1 x 8 00 00 00 00 00 00 00 00 
11:40:13:7374 Rx 1 0xCF06931 x 8 02 00 00 00 00 00 00 00 
11:40:13:7380 Rx 1 0xCF06731 x 8 00 00 00 00 00 00 00 00 
11:40:13:7386 Rx 1 0xCF06B31 x 8 01 00 00 00 00 00 00 00 
11:40:13:7456 Rx 1 0xCF06523 x 8 02 00 00 00 00 00 00 00 
11:40:13:7461 Rx 1 0xCF07623 x 8 30 00 00 00 00 00 00 00 
11:40:13:8273 Rx 1 0xCF06CE1 x 8 40 00 00 00 00 00 00 00 
11:40:13:8279 Rx 1 0xCF078E1 x 8 00 00 00 00 00 00 00 00 
11:40:13:8374 Rx 1 0xCF06931 x 8 02 00 00 00 00 00 00 00 
11:40:13:8380 Rx 1 0xCF06731 x 8 00 00 00 00 00 00 00 00 
11:40:13:8385 Rx 1 0xCF06B31 x 8 01 00 00 00 00 00 00 00 
11:40:13:8456 Rx 1 0xCF06523 x 8 02 00 00 00 00 00 00 00 
11:40:13:8462 Rx 1 0xCF07623 x 8 50 00 00 00 00 00 00 00 
11:40:13:9273 Rx 1 0xCF06CE1 x 8 50 00 00 00 00 00 00 00 
11:40:13:9279 Rx 1 0xCF11000 x 8 7F 18 00 00 27 23 7F 7F 
11:40:13:9285 Rx 1 0xCF078E1 x 8 00 00 00 00 00 00 00 00 
11:40:13:9374 Rx 1 0xCF06931 x 8 02 00 00 00 00 00 00 00 
11:40:13:9380 Rx 1 0xCF06731 x 8 00 00 00 00 00 00 00 00 
11:40:13:9386 Rx 1 0xCF06B31 x 8 01 00 00 00 00 00 00 00 
11:40:13:9456 Rx 1 0xCF06523 x 8 02 00 00 00 00 00 00 00 
11:40:13:9462 Rx 1 0xCF07623 x 8 70 00 00 00 00 00 00 00 
11:40:14:0273 Rx 1 0xCF06CE1 x 8 60 00 00 00 00 00 00 00 
11:40:14:0279 Rx 1 0xCF078E1 x 8 00 00 00 00 00 00 00 00 
11:40:14:0374 Rx 1 0xCF06931 x 8 02 00 00 00 00 00 00 00 
11:40:14:0380 Rx 1 0xCF06731 x 8 00 00 00 00 00 00 00 00 
11:40:14:0386 Rx 1 0xCF06B31 x 8 01 00 00 00 00 00 00 00 
11:40:14:0457 Rx 1 0xCF06523 x 8 02 00 00 00 00 00 00 00 
11:40:14:0463 Rx 1 0xCF07623 x 8 90 00 00 00 00 00 00 00 
11:40:14:1273 Rx 1 0xCF06CE1 x 8 70 00 00 00 00 00 00 00 
11:40:14:1279 Rx 1 0xCF11000 x 8 7F 18 00 00 27 27 7F 7F 
11:40:14:1285 Rx 1 0xCF078E1 x 8 00 00 00 00 00 00 00 00 
11:40:14:1374 Rx 1 0xCF07731 x 8 1D 9A 4D 49 9A 01 01 00 
11:40:14:1379 Rx 1 0xCF06731 x 8 00 00 00 00 00 00 00 00 
11:40:14:1385 Rx 1 0xCF06931 x 8 02 00 00 00 00 00 00 00 
11:40:14:1391 Rx 1 0xCF06B31 x 8 01 00 00 00 00 00 00 00 
11:40:14:1457 Rx 1 0xCF07523 x 8 90 02 07 8F 00 00 00 00 
11:40:14:1463 Rx 1 0xCF06523 x 8 02 00 00 00 00 00 00 00 
11:40:14:1469 Rx 1 0xCF07623 x 8 B0 00 00 00 00 00 00 00 
11:40:14:2274 Rx 1 0xCF06CE1 x 8 80 00 00 00 00 00 00 00 
11:40:14:2279 Rx 1 0xCF078E1 x 8 00 00 00 00 00 00 00 00 
11:40:14:2374 Rx 1 0xCF06931 x 8 02 00 00 00 00 00 00 00 
11:40:14:2380 Rx 1 0xCF06731 x 8 00 00 00 00 00 00 00 00 
11:40:14:2385 Rx 1 0xCF06B31 x 8 01 00 00 00 00 00 00 00 
11:40:14:2458 Rx 1 0xCF06523 x 8 02 00 00 00 00 00 00 00 
11:40:14:2464 Rx 1 0xCF07623 x 8 D0 00 00 00 00 00 00 00 
11:40:14:2827 Rx 1 0xCF073E3 x 8 E5 9A 4D 49 9A 01 00 00 
11:40:14:3273 Rx 1 0xCF06CE1 x 8 90 00 00 00 00 00 00 00 
11:40:14:3279 Rx 1 0xCF11000 x 8 7F 18 00 00 1B 27 7F 7F 
11:40:14:3285 Rx 1 0xCF078E1 x 8 00 00 00 00 00 00 00 00 
11:40:14:3374 Rx 1 0xCF06931 x 8 02 00 00 00 00 00 00 00 
11:40:14:3380 Rx 1 0xCF06731 x 8 00 00 00 00 00 00 00 00 
11:40:14:3385 Rx 1 0xCF06B31 x 8 01 00 00 00 00 00 00 00 
11:40:14:3458 Rx 1 0xCF06523 x 8 02 00 00 00 00 00 00 00 
11:40:14:3464 Rx 1 0xCF07623 x 8 F0 00 00 00 00 00 00 00 
11:40:14:4273 Rx 1 0xCF06CE1 x 8 A0 00 00 00 00 00 00 00 
11:40:14:4279 Rx 1 0xCF078E1 x 8 00 00 00 00 00 00 00 00 
11:40:14:4374 Rx 1 0xCF06931 x 8 02 00 00 00 00 00 00 00 
11:40:14:4380 Rx 1 0xCF06731 x 8 00 00 00 00 00 00 00 00 
11:40:14:4386 Rx 1 0xCF06B31 x 8 01 00 00 00 00 00 00 00 
11:40:14:4459 Rx 1 0xCF06523 x 8 02 00 00 00 00 00 00 00 
11:40:14:4465 Rx 1 0xCF07623 x 8 10 00 00 00 00 00 00 00 
11:40:14:5273 Rx 1 0xCF06CE1 x 8 B0 00 00 00 00 00 00 00 
11:40:14:5279 Rx 1 0xCF11000 x 8 7F 18 00 00 1B 2A 7F 7F 
11:40:14:5285 Rx 1 0xCF078E1 x 8 00 00 00 00 00 00 00 00 
11:40:14:5374 Rx 1 0xCF06931 x 8 02 00 00 00 00 00 00 00 
11:40:14:5380 Rx 1 0xCF06731 x 8 00 00 00 00 00 00 00 00 
11:40:14:5386 Rx 1 0xCF06B31 x 8 01 00 00 00 00 00 00 00 
11:40:14:5459 Rx 1 0xCF06523 x 8 02 00 00 00 00 00 00 00 
11:40:14:5465 Rx 1 0xCF07623 x 8 30 00 00 00 00 00 00 00 
11:40:14:6274 Rx 1 0xCF06CE1 x 8 C0 00 00 00 00 00 00 00 
11:40:14:6279 Rx 1 0xCF078E1 x 8 00 00 00 00 00 00 00 00 
11:40:14:6374 Rx 1 0xCF06931 x 8 02 00 00 00 00 00 00 00 
11:40:14:6380 Rx 1 0xCF06731 x 8 00 00 00 00 00 00 00 00 
11:40:14:6386 Rx 1 0xCF06B31 x 8 01 00 00 00 00 00 00 00 
11:40:14:6460 Rx 1 0xCF06523 x 8 02 00 00 00 00 00 00 00 
11:40:14:6466 Rx 1 0xCF07623 x 8 50 00 00 00 00 00 00 00 
11:40:14:7273 Rx 1 0xCF06CE1 x 8 D0 00 00 00 00 00 00 00 
11:40:14:7279 Rx 1 0xCF11000 x 8 7F 18 00 00 1B 2A 7F 7F 
11:40:14:7285 Rx 1 0xCF074E1 x 8 00 00 00 00 00 00 00 00 
11:40:14:7291 Rx 1 0xCF078E1 x 8 00 00 00 00 00 00 00 00 
11:40:14:7374 Rx 1 0xCF06931 x 8 02 00 00 00 00 00 00 00 
11:40:14:7380 Rx 1 0xCF06731 x 8 00 00 00 00 00 00 00 00 
11:40:14:7386 Rx 1 0xCF06B31 x 8 01 00 00 00 00 00 00 00 
11:40:14:7461 Rx 1 0xCF06523 x 8 02 00 00 00 00 00 00 00 
11:40:14:7466 Rx 1 0xCF07623 x 8 70 00 00 00 00 00 00 00 
11:40:14:8274 Rx 1 0xCF06CE1 x 8 E0 00 00 00 00 00 00 00 
11:40:14:8280 Rx 1 0xCF078E1 x 8 00 00 00 00 00 00 00 00 
11:40:14:8374 Rx 1 0xCF06931 x 8 02 00 00 00 00 00 00 00 
11:40:14:8380 Rx 1 0xCF06731 x 8 00 00 00 00 00 00 00 00 
11:40:14:8386 Rx 1 0xCF06B31 x 8 01 00 00 00 00 00 00 00 
11:40:14:8461 Rx 1 0xCF06523 x 8 02 00 00 00 00 00 00 00 
11:40:14:8467 Rx 1 0xCF07623 x 8 90 00 00 00 00 00 00 00 
11:40:14:9274 Rx 1 0xCF06CE1 x 8 F0 00 00 00 00 00 00 00 
11:40:14:9279 Rx 1 0xCF11000 x 8 7F 18 00 00 1F 2A 7F 7F 
11:40:14:9285 Rx 1 0xCF078E1 x 8 00 00 00 00 00 00 00 00 
11:40:14:9374 Rx 1 0xCF06931 x 8 02 00 00 00 00 00 00 00 
11:40:14:9380 Rx 1 0xCF06731 x 8 00 00 00 00 00 00 00 00 
11:40:14:9386 Rx 1 0xCF06B31 x 8 01 00 00 00 00 00 00 00 
11:40:14:9461 Rx 1 0xCF06523 x 8 02 00 00 00 00 00 00 00 
11:40:14:9467 Rx 1 0xCF07623 x 8 B0 00 00 00 00 00 00 00 
11:40:15:0274 Rx 1 0xCF06CE1 x 8 00 00 00 00 00 00 00 00 
11:40:15:0279 Rx 1 0xCF078E1 x 8 00 00 00 00 00 00 00 00 
11:40:15:0374 Rx 1 0xCF06931 x 8 02 00 00 00 00 00 00 00 
11:40:15:0380 Rx 1 0xCF06731 x 8 00 00 00 00 00 00 00 00 
11:40:15:0386 Rx 1 0xCF06B31 x 8 01 00 00 00 00 00 00 00 
11:40:15:0462 Rx 1 0xCF06523 x 8 02 00 00 00 00 00 00 00 
11:40:15:0468 Rx 1 0xCF07623 x 8 D0 00 00 00 00 00 00 00 
11:40:15:1274 Rx 1 0xCF06CE1 x 8 10 00 00 00 00 00 00 00 
11:40:15:1279 Rx 1 0xCF11000 x 8 7F 18 00 00 1F 1F 7F 7F 
11:40:15:1285 Rx 1 0xCF078E1 x 8 00 00 00 00 00 00 00 00 
11:40:15:1374 Rx 1 0xCF07731 x 8 05 9E 4D 49 9A 01 01 00 
11:40:15:1380 Rx 1 0xCF06731 x 8 00 00 00 00 00 00 00 00 
11:40:15:1386 Rx 1 0xCF06931 x 8 02 00 00 00 00 00 00 00 
11:40:15:1391 Rx 1 0xCF06B31 x 8 01 00 00 00 00 00 00 00 
11:40:15:1462 Rx 1 0xCF07523 x 8 90 02 07 8F 00 00 00 00 
11:40:15:1468 Rx 1 0xCF06523 x 8 02 00 00 00 00 00 00 00 
11:40:15:1474 Rx 1 0xCF07623 x 8 F0 00 00 00 00 00 00 00 
11:40:15:2274 Rx 1 0xCF06CE1 x 8 20 00 00 00 00 00 00 00 
11:40:15:2279 Rx 1 0xCF078E1 x 8 00 00 00 00 00 00 00 00 
11:40:15:2374 Rx 1 0xCF06931 x 8 02 00 00 00 00 00 00 00 
11:40:15:2380 Rx 1 0xCF06731 x 8 00 00 00 00 00 00 00 00 
11:40:15:2386 Rx 1 0xCF06B31 x 8 01 00 00 00 00 00 00 00 
11:40:15:2463 Rx 1 0xCF06523 x 8 02 00 00 00 00 00 00 00 
11:40:15:2469 Rx 1 0xCF07623 x 8 10 00 00 00 00 00 00 00 
11:40:15:2889 Rx 1 0xCF073E3 x 8 D3 9E 4D 49 9A 01 00 00 
11:40:15:3274 Rx 1 0xCF06CE1 x 8 30 00 00 00 00 00 00 00 
11:40:15:3279 Rx 1 0xCF11000 x 8 7F 18 00 00 17 1F 7F 7F 
11:40:15:3285 Rx 1 0xCF078E1 x 8 00 00 00 00 00 00 00 00 
11:40:15:3374 Rx 1 0xCF06931 x 8 02 00 00 00 00 00 00 00 
11:40:15:3380 Rx 1 0xCF06731 x 8 00 00 00 00 00 00 00 00 
11:40:15:3386 Rx 1 0xCF06B31 x 8 01 00 00 00 00 00 00 00 
11:40:15:3463 Rx 1 0xCF06523 x 8 02 00 00 00 00 00 00 00 
11:40:15:3469 Rx 1 0xCF07623 x 8 30 00 00 00 00 00 00 00 
11:40:15:4274 Rx 1 0xCF06CE1 x 8 40 00 00 00 00 00 00 00 
11:40:15:4279 Rx 1 0xCF078E1 x 8 00 00 00 00 00 00 00 00 
11:40:15:4374 Rx 1 0xCF06931 x 8 02 00 00 00 00 00 00 00 
11:40:15:4380 Rx 1 0xCF06731 x 8 00 00 00 00 00 00 00 00 
11:40:15:4386 Rx 1 0xCF06B31 x 8 01 00 00 00 00 00 00 00 
11:40:15:4464 Rx 1 0xCF06523 x 8 02 00 00 00 00 00 00 00 
11:40:15:4470 Rx 1 0xCF07623 x 8 50 00 00 00 00 00 00 00 
11:40:15:5273 Rx 1 0xCF06CE1 x 8 50 00 00 00 00 00 00 00 
11:40:15:5279 Rx 1 0xCF11000 x 8 7F 18 00 00 17 22 7F 7F 
11:40:15:5285 Rx 1 0xCF078E1 x 8 00 00 00 00 00 00 00 00 
11:40:15:5374 Rx 1 0xCF06931 x 8 02 00 00 00 00 00 00 00 
11:40:15:5380 Rx 1 0xCF06731 x 8 00 00 00 00 00 00 00 00 
11:40:15:5386 Rx 1 0xCF06B31 x 8 01 00 00 00 00 00 00 00 
11:40:15:5465 Rx 1 0xCF06523 x 8 02 00 00 00 00 00 00 00 
11:40:15:5470 Rx 1 0xCF07623 x 8 70 00 00 00 00 00 00 00 
11:40:15:6274 Rx 1 0xCF06CE1 x 8 60 00 00 00 00 00 00 00 
11:40:15:6280 Rx 1 0xCF078E1 x 8 00 00 00 00 00 00 00 00 
11:40:15:6374 Rx 1 0xCF06931 x 8 02 00 00 00 00 00 00 00 
11:40:15:6380 Rx 1 0xCF06731 x 8 00 00 00 00 00 00 00 00 
11:40:15:6386 Rx 1 0xCF06B31 x 8 01 00 00 00 00 00 00 00 
11:40:15:6465 Rx 1 0xCF06523 x 8 02 00 00 00 00 00 00 00 
11:40:15:6471 Rx 1 0xCF07623 x 8 90 00 00 00 00 00 00 00 
11:40:15:7274 Rx 1 0xCF06CE1 x 8 70 00 00 00 00 00 00 00 
11:40:15:7279 Rx 1 0xCF11000 x 8 7F 18 00 00 17 22 7F 7F 
11:40:15:7285 Rx 1 0xCF074E1 x 8 00 00 00 00 00 00 00 00 
11:40:15:7291 Rx 1 0xCF078E1 x 8 00 00 00 00 00 00 00 00 
11:40:15:7374 Rx 1 0xCF06931 x 8 02 00 00 00 00 00 00 00 
11:40:15:7380 Rx 1 0xCF06731 x 8 00 00 00 00 00 00 00 00 
11:40:15:7386 Rx 1 0xCF06B31 x 8 01 00 00 00 00 00 00 00 
11:40:15:7466 Rx 1 0xCF06523 x 8 02 00 00 00 00 00 00 00 
11:40:15:7471 Rx 1 0xCF07623 x 8 B0 00 00 00 00 00 00 00 
11:40:15:8274 Rx 1 0xCF06CE1 x 8 80 00 00 00 00 00 00 00 
11:40:15:8280 Rx 1 0xCF078E1 x 8 00 00 00 00 00 00 00 00 
11:40:15:8375 Rx 1 0xCF06931 x 8 02 00 00 00 00 00 00 00 
11:40:15:8380 Rx 1 0xCF06731 x 8 00 00 00 00 00 00 00 00 
11:40:15:8386 Rx 1 0xCF06B31 x 8 01 00 00 00 00 00 00 00 
11:40:15:8466 Rx 1 0xCF06523 x 8 02 00 00 00 00 00 00 00 
11:40:15:8472 Rx 1 0xCF07623 x 8 D0 00 00 00 00 00 00 00 
11:40:15:9274 Rx 1 0xCF06CE1 x 8 90 00 00 00 00 00 00 00 
11:40:15:9279 Rx 1 0xCF11000 x 8 7F 18 00 00 23 22 7F 7F 
11:40:15:9285 Rx 1 0xCF078E1 x 8 00 00 00 00 00 00 00 00 
11:40:15:9374 Rx 1 0xCF06931 x 8 02 00 00 00 00 00 00 00 
11:40:15:9380 Rx 1 0xCF06731 x 8 00 00 00 00 00 00 00 00 
11:40:15:9386 Rx 1 0xCF06B31 x 8 01 00 00 00 00 00 00 00 
11:40:15:9467 Rx 1 0xCF06523 x 8 02 00 00 00 00 00 00 00 
11:40:15:9472 Rx 1 0xCF07623 x 8 F0 00 00 00 00 00 00 00 
11:40:16:0274 Rx 1 0xCF06CE1 x 8 A0 00 00 00 00 00 00 00 
11:40:16:0280 Rx 1 0xCF078E1 x 8 00 00 00 00 00 00 00 00 
11:40:16:0374 Rx 1 0xCF06931 x 8 02 00 00 00 00 00 00 00 
11:40:16:0380 Rx 1 0xCF06731 x 8 00 00 00 00 00 00 00 00 
11:40:16:0386 Rx 1 0xCF06B31 x 8 01 00 00 00 00 00 00 00 
11:40:16:0467 Rx 1 0xCF06523 x 8 02 00 00 00 00 00 00 00 
11:40:16:0473 Rx 1 0xCF07623 x 8 10 00 00 00 00 00 00 00 
11:40:16:1274 Rx 1 0xCF06CE1 x 8 B0 00 00 00 00 00 00 00 
11:40:16:1280 Rx 1 0xCF11000 x 8 7F 18 00 00 23 1F 7F 7F 
11:40:16:1285 Rx 1 0xCF078E1 x 8 00 00 00 00 00 00 00 00 
11:40:16:1374 Rx 1 0xCF07731 x 8 F3 A1 4D 49 9A 01 01 00 
11:40:16:1380 Rx 1 0xCF06731 x 8 00 00 00 00 00 00 00 00 
11:40:16:1385 Rx 1 0xCF06931 x 8 02 00 00 00 00 00 00 00 
11:40:16:1391 Rx 1 0xCF06B31 x 8 01 00 00 00 00 00 00 00 
11:40:16:1468 Rx 1 0xCF07523 x 8 90 02 07 8F 00 00 00 00 
11:40:16:1473 Rx 1 0xCF06523 x 8 02 00 00 00 00 00 00 00 
11:40:16:1479 Rx 1 0xCF07623 x 8 30 00 00 00 00 00 00 00 
11:40:16:2274 Rx 1 0xCF06CE1 x 8 C0 00 00 00 00 00 00 00 
11:40:16:2279 Rx 1 0xCF078E1 x 8 00 00 00 00 00 00 00 00 
11:40:16:2374 Rx 1 0xCF06931 x 8 02 00 00 00 00 00 00 00 
11:40:16:2380 Rx 1 0xCF06731 x 8 00 00 00 00 00 00 00 00 
11:40:16:2386 Rx 1 0xCF06B31 x 8 01 00 00 00 00 00 00 00 
11:40:16:2468 Rx 1 0xCF06523 x 8 02 00 00 00 00 00 00 00 
11:40:16:2474 Rx 1 0xCF07623 x 8 50 00 00 00 00 00 00 00 
11:40:16:2889 Rx 1 0xCF073E3 x 8 BB A2 4D 49 9A 01 00 00 
11:40:16:3274 Rx 1 0xCF06CE1 x 8 D0 00 00 00 00 00 00 00 
11:40:16:3279 Rx 1 0xCF11000 x 8 7F 18 00 00 28 1F 7F 7F 
11:40:16:3285 Rx 1 0xCF078E1 x 8 00 00 00 00 00 00 00 00 
11:40:16:3374 Rx 1 0xCF06931 x 8 02 00 00 00 00 00 00 00 
11:40:16:3380 Rx 1 0xCF06731 x 8 00 00 00 00 00 00 00 00 
11:40:16:3386 Rx 1 0xCF06B31 x 8 01 00 00 00 00 00 00 00 
11:40:16:3469 Rx 1 0xCF06523 x 8 02 00 00 00 00 00 00 00 
11:40:16:3474 Rx 1 0xCF07623 x 8 70 00 00 00 00 00 00 00 
11:40:16:4274 Rx 1 0xCF06CE1 x 8 E0 00 00 00 00 00 00 00 
11:40:16:4279 Rx 1 0xCF078E1 x 8 00 00 00 00 00 00 00 00 
11:40:16:4374 Rx 1 0xCF06931 x 8 02 00 00 00 00 00 00 00 
11:40:16:4380 Rx 1 0xCF06731 x 8 00 00 00 00 00 00 00 00 
11:40:16:4386 Rx 1 0xCF06B31 x 8 01 00 00 00 00 00 00 00 
11:40:16:4469 Rx 1 0xCF06523 x 8 02 00 00 00 00 00 00 00 
11:40:16:4475 Rx 1 0xCF07623 x 8 90 00 00 00 00 00 00 00 
11:40:16:5274 Rx 1 0xCF06CE1 x 8 F0 00 00 00 00 00 00 00 
11:40:16:5279 Rx 1 0xCF11000 x 8 7F 18 00 00 28 2B 7F 7F 
11:40:16:5285 Rx 1 0xCF078E1 x 8 00 00 00 00 00 00 00 00 
11:40:16:5374 Rx 1 0xCF06931 x 8 02 00 00 00 00 00 00 00 
11:40:16:5380 Rx 1 0xCF06731 x 8 00 00 00 00 00 00 00 00 
11:40:16:5386 Rx 1 0xCF06B31 x 8 01 00 00 00 00 00 00 00 
11:40:16:5470 Rx 1 0xCF06523 x 8 02 00 00 00 00 00 00 00 
11:40:16:5475 Rx 1 0xCF07623 x 8 B0 00 00 00 00 00 00 00 
11:40:16:6274 Rx 1 0xCF06CE1 x 8 00 00 00 00 00 00 00 00 
11:40:16:6280 Rx 1 0xCF078E1 x 8 00 00 00 00 00 00 00 00 
11:40:16:6375 Rx 1 0xCF06931 x 8 02 00 00 00 00 00 00 00 
11:40:16:6380 Rx 1 0xCF06731 x 8 00 00 00 00 00 00 00 00 
11:40:16:6386 Rx 1 0xCF06B31 x 8 01 00 00 00 00 00 00 00 
11:40:16:6471 Rx 1 0xCF06523 x 8 02 00 00 00 00 00 00 00 
11:40:16:6476 Rx 1 0xCF07623 x 8 D0 00 00 00 00 00 00 00 
11:40:16:7274 Rx 1 0xCF06CE1 x 8 10 00 00 00 00 00 00 00 
11:40:16:7280 Rx 1 0xCF11000 x 8 7F 18 00 00 28 2B 7F 7F 
11:40:16:7286 Rx 1 0xCF074E1 x 8 00 00 00 00 00 00 00 00 
11:40:16:7291 Rx 1 0xCF078E1 x 8 00 00 00 00 00 00 00 00 
11:40:16:7374 Rx 1 0xCF06931 x 8 02 00 00 00 00 00 00 00 
11:40:16:7380 Rx 1 0xCF06731 x 8 00 00 00 00 00 00 00 00 
11:40:16:7386 Rx 1 0xCF06B31 x 8 01 00 00 00 00 00 00 00 
11:40:16:7471 Rx 1 0xCF06523 x 8 02 00 00 00 00 00 00 00 
11:40:16:7477 Rx 1 0xCF07623 x 8 F0 00 00 00 00 00 00 00 
11:40:16:8274 Rx 1 0xCF06CE1 x 8 20 00 00 00 00 00 00 00 
11:40:16:8280 Rx 1 0xCF078E1 x 8 00 00 00 00 00 00 00 00 
11:40:16:8374 Rx 1 0xCF06931 x 8 02 00 00 00 00 00 00 00 
11:40:16:8380 Rx 1 0xCF06731 x 8 00 00 00 00 00 00 00 00 
11:40:16:8386 Rx 1 0xCF06B31 x 8 01 00 00 00 00 00 00 00 
11:40:16:8471 Rx 1 0xCF06523 x 8 02 00 00 00 00 00 00 00 
11:40:16:8477 Rx 1 0xCF07623 x 8 10 00 00 00 00 00 00 00 
11:40:16:9274 Rx 1 0xCF06CE1 x 8 30 00 00 00 00 00 00 00 
11:40:16:9279 Rx 1 0xCF11000 x 8 7F 18 00 00 0F 2B 7F 7F 
11:40:16:9285 Rx 1 0xCF078E1 x 8 00 00 00 00 00 00 00 00 
11:40:16:9375 Rx 1 0xCF06931 x 8 02 00 00 00 00 00 00 00 
11:40:16:9381 Rx 1 0xCF06731 x 8 00 00 00 00 00 00 00 00 
11:40:16:9386 Rx 1 0xCF06B31 x 8 01 00 00 00 00 00 00 00 
11:40:16:9472 Rx 1 0xCF06523 x 8 02 00 00 00 00 00 00 00 
11:40:16:9478 Rx 1 0xCF07623 x 8 30 00 00 00 00 00 00 00 
11:40:17:0274 Rx 1 0xCF06CE1 x 8 40 00 00 00 00 00 00 00 
11:40:17:0279 Rx 1 0xCF078E1 x 8 00 00 00 00 00 00 00 00 
11:40:17:0375 Rx 1 0xCF06931 x 8 02 00 00 00 00 00 00 00 
11:40:17:0380 Rx 1 0xCF06731 x 8 00 00 00 00 00 00 00 00 
11:40:17:0386 Rx 1 0xCF06B31 x 8 01 00 00 00 00 00 00 00 
11:40:17:0472 Rx 1 0xCF06523 x 8 02 00 00 00 00 00 00 00 
11:40:17:0478 Rx 1 0xCF07623 x 8 50 00 00 00 00 00 00 00 
11:40:17:1274 Rx 1 0xCF06CE1 x 8 50 00 00 00 00 00 00 00 
11:40:17:1280 Rx 1 0xCF11000 x 8 7F 18 00 00 0F 32 7F 7F 
11:40:17:1285 Rx 1 0xCF078E1 x 8 00 00 00 00 00 00 00 00 
11:40:17:1374 Rx 1 0xCF07731 x 8 DB A5 4D 49 9A 01 01 00 
11:40:17:1380 Rx 1 0xCF06731 x 8 00 00 00 00 00 00 00 00 
11:40:17:1386 Rx 1 0xCF06931 x 8 02 00 00 00 00 00 00 00 
11:40:17:1391 Rx 1 0xCF06B31 x 8 01 00 00 00 00 00 00 00 
11:40:17:1473 Rx 1 0xCF07523 x 8 90 02 07 8F 00 00 00 00 
11:40:17:1479 Rx 1 0xCF06523 x 8 02 00 00 00 00 00 00 00 
11:40:17:1484 Rx 1 0xCF07623 x 8 70 00 00 00 00 00 00 00 
11:40:17:2274 Rx 1 0xCF06CE1 x 8 60 00 00 00 00 00 00 00 
11:40:17:2280 Rx 1 0xCF078E1 x 8 00 00 00 00 00 00 00 00 
11:40:17:2374 Rx 1 0xCF06931 x 8 02 00 00 00 00 00 00 00 
11:40:17:2380 Rx 1 0xCF06731 x 8 00 00 00 00 00 00 00 00 
11:40:17:2386 Rx 1 0xCF06B31 x 8 01 00 00 00 00 00 00 00 
11:40:17:2473 Rx 1 0xCF06523 x 8 02 00 00 00 00 00 00 00 
11:40:17:2479 Rx 1 0xCF07623 x 8 90 00 00 00 00 00 00 00 
11:40:17:2907 Rx 1 0xCF073E3 x 8 A5 A6 4D 49 9A 01 00 00 
11:40:17:3274 Rx 1 0xCF06CE1 x 8 70 00 00 00 00 00 00 00 
11:40:17:3280 Rx 1 0xCF11000 x 8 7F 18 00 00 23 32 7F 7F 
11:40:17:3285 Rx 1 0xCF078E1 x 8 00 00 00 00 00 00 00 00 
11:40:17:3374 Rx 1 0xCF06931 x 8 02 00 00 00 00 00 00 00 
11:40:17:3380 Rx 1 0xCF06731 x 8 00 00 00 00 00 00 00 00 
11:40:17:3386 Rx 1 0xCF06B31 x 8 01 00 00 00 00 00 00 00 
11:40:17:3474 Rx 1 0xCF06523 x 8 02 00 00 00 00 00 00 00 
11:40:17:3480 Rx 1 0xCF07623 x 8 B0 00 00 00 00 00 00 00 
11:40:17:4274 Rx 1 0xCF06CE1 x 8 80 00 00 00 00 00 00 00 
11:40:17:4280 Rx 1 0xCF078E1 x 8 00 00 00 00 00 00 00 00 
11:40:17:4375 Rx 1 0xCF06931 x 8 02 00 00 00 00 00 00 00 
11:40:17:4380 Rx 1 0xCF06731 x 8 00 00 00 00 00 00 00 00 
11:40:17:4386 Rx 1 0xCF06B31 x 8 01 00 00 00 00 00 00 00 
11:40:17:4474 Rx 1 0xCF06523 x 8 02 00 00 00 00 00 00 00 
11:40:17:4480 Rx 1 0xCF07623 x 8 D0 00 00 00 00 00 00 00 
11:40:17:5274 Rx 1 0xCF06CE1 x 8 90 00 00 00 00 00 00 00 
11:40:17:5280 Rx 1 0xCF11000 x 8 7F 18 00 00 23 23 7F 7F 
11:40:17:5285 Rx 1 0xCF078E1 x 8 00 00 00 00 00 00 00 00 
11:40:17:5374 Rx 1 0xCF06931 x 8 02 00 00 00 00 00 00 00 
11:40:17:5380 Rx 1 0xCF06731 x 8 00 00 00 00 00 00 00 00 
11:40:17:5386 Rx 1 0xCF06B31 x 8 01 00 00 00 00 00 00 00 
11:40:17:5475 Rx 1 0xCF06523 x 8 02 00 00 00 00 00 00 00 
11:40:17:5481 Rx 1 0xCF07623 x 8 F0 00 00 00 00 00 00 00 
11:40:17:6274 Rx 1 0xCF06CE1 x 8 A0 00 00 00 00 00 00 00 
11:40:17:6280 Rx 1 0xCF078E1 x 8 00 00 00 00 00 00 00 00 
11:40:17:6375 Rx 1 0xCF06931 x 8 02 00 00 00 00 00 00 00 
11:40:17:6381 Rx 1 0xCF06731 x 8 00 00 00 00 00 00 00 00 
11:40:17:6386 Rx 1 0xCF06B31 x 8 01 00 00 00 00 00 00 00 
11:40:17:6476 Rx 1 0xCF06523 x 8 02 00 00 00 00 00 00 00 
11:40:17:6482 Rx 1 0xCF07623 x 8 10 00 00 00 00 00 00 00 
11:40:17:7274 Rx 1 0xCF06CE1 x 8 B0 00 00 00 00 00 00 00 
11:40:17:7280 Rx 1 0xCF11000 x 8 7F 18 00 00 23 23 7F 7F 
11:40:17:7286 Rx 1 0xCF074E1 x 8 00 00 00 00 00 00 00 00 
11:40:17:7292 Rx 1 0xCF078E1 x 8 00 00 00 00 00 00 00 00 
11:40:17:7375 Rx 1 0xCF06931 x 8 02 00 00 00 00 00 00 00 
11:40:17:7381 Rx 1 0xCF06731 x 8 00 00 00 00 00 00 00 00 
11:40:17:7386 Rx 1 0xCF06B31 x 8 01 00 00 00 00 00 00 00 
11:40:17:7476 Rx 1 0xCF06523 x 8 02 00 00 00 00 00 00 00 
11:40:17:7482 Rx 1 0xCF07623 x 8 30 00 00 00 00 00 00 00 
11:40:17:8274 Rx 1 0xCF06CE1 x 8 C0 00 00 00 00 00 00 00 
11:40:17:8280 Rx 1 0xCF078E1 x 8 00 00 00 00 00 00 00 00 
11:40:17:8375 Rx 1 0xCF06931 x 8 02 00 00 00 00 00 00 00 
11:40:17:8380 Rx 1 0xCF06731 x 8 00 00 00 00 00 00 00 00 
11:40:17:8386 Rx 1 0xCF06B31 x 8 01 00 00 00 00 00 00 00 
11:40:17:8477 Rx 1 0xCF06523 x 8 02 00 00 00 00 00 00 00 
11:40:17:8482 Rx 1 0xCF07623 x 8 50 00 00 00 00 00 00 00 
11:40:17:9274 Rx 1 0xCF06CE1 x 8 D0 00 00 00 00 00 00 00 
11:40:17:9280 Rx 1 0xCF11000 x 8 7F 18 00 00 24 23 7F 7F 
11:40:17:9286 Rx 1 0xCF078E1 x 8 00 00 00 00 00 00 00 00 
11:40:17:9375 Rx 1 0xCF06931 x 8 02 00 00 00 00 00 00 00 
11:40:17:9380 Rx 1 0xCF06731 x 8 00 00 00 00 00 00 00 00 
11:40:17:9386 Rx 1 0xCF06B31 x 8 01 00 00 00 00 00 00 00 
11:40:17:9477 Rx 1 0xCF06523 x 8 02 00 00 00 00 00 00 00 
11:40:17:9483 Rx 1 0xCF07623 x 8 70 00 00 00 00 00 00 00 
11:40:18:0274 Rx 1 0xCF06CE1 x 8 E0 00 00 00 00 00 00 00 
11:40:18:0280 Rx 1 0xCF078E1 x 8 00 00 00 00 00 00 00 00 
11:40:18:0375 Rx 1 0xCF06931 x 8 02 00 00 00 00 00 00 00 
11:40:18:0381 Rx 1 0xCF06731 x 8 00 00 00 00 00 00 00 00 
11:40:18:0386 Rx 1 0xCF06B31 x 8 01 00 00 00 00 00 00 00 
11:40:18:0478 Rx 1 0xCF06523 x 8 02 00 00 00 00 00 00 00 
11:40:18:0483 Rx 1 0xCF07623 x 8 90 00 00 00 00 00 00 00 
11:40:18:1274 Rx 1 0xCF06CE1 x 8 F0 00 00 00 00 00 00 00 
11:40:18:1280 Rx 1 0xCF11000 x 8 7F 18 00 00 24 23 7F 7F 
11:40:18:1285 Rx 1 0xCF078E1 x 8 00 00 00 00 00 00 00 00 
11:40:18:1374 Rx 1 0xCF07731 x 8 C5 A9 4D 49 9A 01 01 00 
11:40:18:1380 Rx 1 0xCF06731 x 8 00 00 00 00 00 00 00 00 
11:40:18:1386 Rx 1 0xCF06931 x 8 02 00 00 00 00 00 00 00 
11:40:18:1392 Rx 1 0xCF06B31 x 8 01 00 00 00 00 00 00 00 
11:40:18:1478 Rx 1 0xCF07523 x 8 90 02 07 8F 00 00 00 00 
11:40:18:1484 Rx 1 0xCF06523 x 8 02 00 00 00 00 00 00 00 
11:40:18:1489 Rx 1 0xCF07623 x 8 B0 00 00 00 00 00 00 00 
11:40:18:2274 Rx 1 0xCF06CE1 x 8 00 00 00 00 00 00 00 00 
11:40:18:2280 Rx 1 0xCF078E1 x 8 00 00 00 00 00 00 00 00 
11:40:18:2375 Rx 1 0xCF06931 x 8 02 00 00 00 00 00 00 00 
11:40:18:2380 Rx 1 0xCF06731 x 8 00 00 00 00 00 00 00 00 
11:40:18:2386 Rx 1 0xCF06B31 x 8 01 00 00 00 00 00 00 00 
11:40:18:2479 Rx 1 0xCF06523 x 8 02 00 00 00 00 00 00 00 
11:40:18:2484 Rx 1 0xCF07623 x 8 D0 00 00 00 00 00 00 00 
11:40:18:2930 Rx 1 0xCF073E3 x 8 8F AA 4D 49 9A 01 00 00 
11:40:18:3274 Rx 1 0xCF06CE1 x 8 10 00 00 00 00 00 00 00 
11:40:18:3280 Rx 1 0xCF11000 x 8 7F 18 00 00 23 23 7F 7F 
11:40:18:3286 Rx 1 0xCF078E1 x 8 00 00 00 00 00 00 00 00 
11:40:18:3375 Rx 1 0xCF06931 x 8 02 00 00 00 00 00 00 00 
11:40:18:3380 Rx 1 0xCF06731 x 8 00 00 00 00 00 00 00 00 
11:40:18:3386 Rx 1 0xCF06B31 x 8 01 00 00 00 00 00 00 00 
11:40:18:3479 Rx 1 0xCF06523 x 8 02 00 00 00 00 00 00 00 
11:40:18:3485 Rx 1 0xCF07623 x 8 F0 00 00 00 00 00 00 00 
11:40:18:4274 Rx 1 0xCF06CE1 x 8 20 00 00 00 00 00 00 00 
11:40:18:4280 Rx 1 0xCF078E1 x 8 00 00 00 00 00 00 00 00 
11:40:18:4374 Rx 1 0xCF06931 x 8 02 00 00 00 00 00 00 00 
11:40:18:4380 Rx 1 0xCF06731 x 8 00 00 00 00 00 00 00 00 
11:40:18:4386 Rx 1 0xCF06B31 x 8 01 00 00 00 00 00 00 00 
